Freq.	V(vout)
1.00000000000000e-002	(-1.54308306065431e-009dB,-1.07999999997996e-003°)
1.00230523807790e-002	(-1.55020654765101e-009dB,-1.08248965710395e-003°)
1.00461579027840e-002	(-1.55736185745411e-009dB,-1.08498505348035e-003°)
1.00693166885180e-002	(-1.56455188304602e-009dB,-1.08748620233949e-003°)
1.00925288607668e-002	(-1.57177276711688e-009dB,-1.08999311694222e-003°)
1.01157945425990e-002	(-1.57902836697654e-009dB,-1.09250581057995e-003°)
1.01391138573668e-002	(-1.58631482531515e-009dB,-1.09502429657472e-003°)
1.01624869287070e-002	(-1.59363889242496e-009dB,-1.09754858827932e-003°)
1.01859138805412e-002	(-1.60099381801371e-009dB,-1.10007869907727e-003°)
1.02093948370768e-002	(-1.60838249506381e-009dB,-1.10261464238297e-003°)
1.02329299228075e-002	(-1.61580781655765e-009dB,-1.10515643164174e-003°)
1.02565192625141e-002	(-1.62326688951283e-009dB,-1.10770408032990e-003°)
1.02801629812647e-002	(-1.63075971392935e-009dB,-1.11025760195482e-003°)
1.03038612044162e-002	(-1.63828628980722e-009dB,-1.11281701005502e-003°)
1.03276140576140e-002	(-1.64584661714642e-009dB,-1.11538231820023e-003°)
1.03514216667934e-002	(-1.65344455325684e-009dB,-1.11795353999146e-003°)
1.03752841581801e-002	(-1.66107527650113e-009dB,-1.12053068906107e-003°)
1.03992016582906e-002	(-1.66874360851663e-009dB,-1.12311377907285e-003°)
1.04231742939330e-002	(-1.67644858497588e-009dB,-1.12570282372207e-003°)
1.04472021922080e-002	(-1.68418441991406e-009dB,-1.12829783673561e-003°)
1.04712854805090e-002	(-1.69195689929599e-009dB,-1.13089883187196e-003°)
1.04954242865232e-002	(-1.69976505879420e-009dB,-1.13350582292134e-003°)
1.05196187382322e-002	(-1.70761372004602e-009dB,-1.13611882370575e-003°)
1.05438689639126e-002	(-1.71549420410424e-009dB,-1.13873784807907e-003°)
1.05681750921366e-002	(-1.72341133260621e-009dB,-1.14136290992710e-003°)
1.05925372517729e-002	(-1.73136799853433e-009dB,-1.14399402316765e-003°)
1.06169555719872e-002	(-1.73935841592378e-009dB,-1.14663120175064e-003°)
1.06414301822431e-002	(-1.74738740641192e-009dB,-1.14927445965811e-003°)
1.06659612123026e-002	(-1.75545207701633e-009dB,-1.15192381090436e-003°)
1.06905487922266e-002	(-1.76355532071942e-009dB,-1.15457926953598e-003°)
1.07151930523760e-002	(-1.77169713752119e-009dB,-1.15724084963196e-003°)
1.07398941234124e-002	(-1.77987656309416e-009dB,-1.15990856530372e-003°)
1.07646521362983e-002	(-1.78808974012848e-009dB,-1.16258243069522e-003°)
1.07894672222983e-002	(-1.79634245458895e-009dB,-1.16526245998304e-003°)
1.08143395129794e-002	(-1.80463374214809e-009dB,-1.16794866737643e-003°)
1.08392691402120e-002	(-1.81296553146085e-009dB,-1.17064106711738e-003°)
1.08642562361706e-002	(-1.82133396521735e-009dB,-1.17333967348073e-003°)
1.08893009333343e-002	(-1.82974000774506e-009dB,-1.17604450077423e-003°)
1.09144033644875e-002	(-1.83818558769892e-009dB,-1.17875556333860e-003°)
1.09395636627209e-002	(-1.84667166940639e-009dB,-1.18147287554762e-003°)
1.09647819614318e-002	(-1.85519343123013e-009dB,-1.18419645180822e-003°)
1.09900583943252e-002	(-1.86375858778989e-009dB,-1.18692630656052e-003°)
1.10153930954141e-002	(-1.87236328177580e-009dB,-1.18966245427794e-003°)
1.10407861990207e-002	(-1.88100558453292e-009dB,-1.19240490946726e-003°)
1.10662378397766e-002	(-1.88968742471618e-009dB,-1.19515368666872e-003°)
1.10917481526240e-002	(-1.89840976665306e-009dB,-1.19790880045604e-003°)
1.11173172728159e-002	(-1.90717164601608e-009dB,-1.20067026543658e-003°)
1.11429453359173e-002	(-1.91597402713272e-009dB,-1.20343809625134e-003°)
1.11686324778056e-002	(-1.92481691000296e-009dB,-1.20621230757508e-003°)
1.11943788346715e-002	(-1.93370222328176e-009dB,-1.20899291411641e-003°)
1.12201845430196e-002	(-1.94262900264164e-009dB,-1.21177993061781e-003°)
1.12460497396692e-002	(-1.95159146211779e-009dB,-1.21457337185577e-003°)
1.12719745617551e-002	(-1.96060213796729e-009dB,-1.21737325264085e-003°)
1.12979591467279e-002	(-1.96965235124294e-009dB,-1.22017958781772e-003°)
1.13240036323555e-002	(-1.97874403059968e-009dB,-1.22299239226530e-003°)
1.13501081567231e-002	(-1.98787814036495e-009dB,-1.22581168089679e-003°)
1.13762728582343e-002	(-1.99705275188385e-009dB,-1.22863746865980e-003°)
1.14024978756117e-002	(-2.00626979381129e-009dB,-1.23146977053635e-003°)
1.14287833478977e-002	(-2.01553215912968e-009dB,-1.23430860154303e-003°)
1.14551294144553e-002	(-2.02483213321928e-009dB,-1.23715397673105e-003°)
1.14815362149688e-002	(-2.03418032368223e-009dB,-1.24000591118630e-003°)
1.15080038894443e-002	(-2.04356901589880e-009dB,-1.24286442002944e-003°)
1.15345325782109e-002	(-2.05300206717885e-009dB,-1.24572951841602e-003°)
1.15611224219210e-002	(-2.06247754886744e-009dB,-1.24860122153650e-003°)
1.15877735615512e-002	(-2.07199931827446e-009dB,-1.25147954461635e-003°)
1.16144861384034e-002	(-2.08156351809002e-009dB,-1.25436450291617e-003°)
1.16412602941049e-002	(-2.09117111264160e-009dB,-1.25725611173171e-003°)
1.16680961706096e-002	(-2.10082306625666e-009dB,-1.26015438639400e-003°)
1.16949939101987e-002	(-2.11051841460773e-009dB,-1.26305934226940e-003°)
1.17219536554813e-002	(-2.12026197933216e-009dB,-1.26597099475970e-003°)
1.17489755493953e-002	(-2.13004893879261e-009dB,-1.26888935930219e-003°)
1.17760597352080e-002	(-2.13988218597147e-009dB,-1.27181445136974e-003°)
1.18032063565173e-002	(-2.14975593490394e-009dB,-1.27474628647091e-003°)
1.18304155572516e-002	(-2.15967982886471e-009dB,-1.27768488014999e-003°)
1.18576874816716e-002	(-2.16964711756148e-009dB,-1.28063024798712e-003°)
1.18850222743701e-002	(-2.17966069397668e-009dB,-1.28358240559833e-003°)
1.19124200802737e-002	(-2.18972055811029e-009dB,-1.28654136863568e-003°)
1.19398810446427e-002	(-2.19983153159966e-009dB,-1.28950715278730e-003°)
1.19674053130724e-002	(-2.20998493549758e-009dB,-1.29247977377747e-003°)
1.19949930314937e-002	(-2.22019041307871e-009dB,-1.29545924736674e-003°)
1.20226443461741e-002	(-2.23043446375853e-009dB,-1.29844558935197e-003°)
1.20503594037179e-002	(-2.24073058812157e-009dB,-1.30143881556647e-003°)
1.20781383510677e-002	(-2.25107107154810e-009dB,-1.30443894188001e-003°)
1.21059813355048e-002	(-2.26146266433038e-009dB,-1.30744598419896e-003°)
1.21338885046497e-002	(-2.27190150915854e-009dB,-1.31045995846637e-003°)
1.21618600064636e-002	(-2.28239146334246e-009dB,-1.31348088066202e-003°)
1.21898959892486e-002	(-2.29292288360746e-009dB,-1.31650876680255e-003°)
1.22179966016487e-002	(-2.30350830621061e-009dB,-1.31954363294150e-003°)
1.22461619926504e-002	(-2.31413905220472e-009dB,-1.32258549516944e-003°)
1.22743923115840e-002	(-2.32482090755459e-009dB,-1.32563436961401e-003°)
1.23026877081238e-002	(-2.33555097927780e-009dB,-1.32869027244005e-003°)
1.23310483322890e-002	(-2.34633408901171e-009dB,-1.33175321984964e-003°)
1.23594743344450e-002	(-2.35716252213657e-009dB,-1.33482322808223e-003°)
1.23879658653036e-002	(-2.36804110028971e-009dB,-1.33790031341469e-003°)
1.24165230759240e-002	(-2.37897271645355e-009dB,-1.34098449216143e-003°)
1.24451461177138e-002	(-2.38995544197314e-009dB,-1.34407578067446e-003°)
1.24738351424294e-002	(-2.40098349088369e-009dB,-1.34717419534348e-003°)
1.25025903021771e-002	(-2.41206747078732e-009dB,-1.35027975259597e-003°)
1.25314117494141e-002	(-2.42320256004671e-009dB,-1.35339246889728e-003°)
1.25602996369487e-002	(-2.43438586567946e-009dB,-1.35651236075075e-003°)
1.25892541179416e-002	(-2.44562220932289e-009dB,-1.35963944469771e-003°)
1.26182753459066e-002	(-2.45691255530448e-009dB,-1.36277373731765e-003°)
1.26473634747114e-002	(-2.46825208198690e-009dB,-1.36591525522829e-003°)
1.26765186585784e-002	(-2.47964271802507e-009dB,-1.36906401508564e-003°)
1.27057410520853e-002	(-2.49108832072887e-009dB,-1.37222003358411e-003°)
1.27350308101665e-002	(-2.50258792577082e-009dB,-1.37538332745660e-003°)
1.27643880881134e-002	(-2.51414056882346e-009dB,-1.37855391347457e-003°)
1.27938130415752e-002	(-2.52574335690440e-009dB,-1.38173180844815e-003°)
1.28233058265601e-002	(-2.53740496896083e-009dB,-1.38491702922624e-003°)
1.28528665994361e-002	(-2.54911479739061e-009dB,-1.38810959269655e-003°)
1.28824955169313e-002	(-2.56088248546842e-009dB,-1.39130951578573e-003°)
1.29121927361353e-002	(-2.57270031857453e-009dB,-1.39451681545947e-003°)
1.29419584144998e-002	(-2.58457601132866e-009dB,-1.39773150872253e-003°)
1.29717927098395e-002	(-2.59650570642094e-009dB,-1.40095361261892e-003°)
1.30016957803328e-002	(-2.60849422548873e-009dB,-1.40418314423190e-003°)
1.30316677845229e-002	(-2.62053288958480e-009dB,-1.40742012068412e-003°)
1.30617088813183e-002	(-2.63262941332890e-009dB,-1.41066455913772e-003°)
1.30918192299940e-002	(-2.64477993941117e-009dB,-1.41391647679438e-003°)
1.31219989901920e-002	(-2.65698639648652e-009dB,-1.41717589089545e-003°)
1.31522483219223e-002	(-2.66925071320991e-009dB,-1.42044281872201e-003°)
1.31825673855640e-002	(-2.68157385390879e-009dB,-1.42371727759500e-003°)
1.32129563418657e-002	(-2.69394810396343e-009dB,-1.42699928487526e-003°)
1.32434153519466e-002	(-2.70638407097597e-009dB,-1.43028885796368e-003°)
1.32739445772973e-002	(-2.71887693330907e-009dB,-1.43358601430124e-003°)
1.33045441797808e-002	(-2.73142669096273e-009dB,-1.43689077136913e-003°)
1.33352143216332e-002	(-2.74403527259189e-009dB,-1.44020314668886e-003°)
1.33659551654643e-002	(-2.75669978521414e-009dB,-1.44352315782229e-003°)
1.33967668742593e-002	(-2.76942312181189e-009dB,-1.44685082237182e-003°)
1.34276496113786e-002	(-2.78220721104007e-009dB,-1.45018615798036e-003°)
1.34586035405594e-002	(-2.79504915991629e-009dB,-1.45352918233156e-003°)
1.34896288259164e-002	(-2.80795089709547e-009dB,-1.45687991314978e-003°)
1.35207256319427e-002	(-2.82091242257761e-009dB,-1.46023836820028e-003°)
1.35518941235103e-002	(-2.83393180770778e-009dB,-1.46360456528923e-003°)
1.35831344658714e-002	(-2.84701194546839e-009dB,-1.46697852226389e-003°)
1.36144468246594e-002	(-2.86015476451436e-009dB,-1.47036025701264e-003°)
1.36458313658892e-002	(-2.87335158589850e-009dB,-1.47374978746511e-003°)
1.36772882559584e-002	(-2.88662073184267e-009dB,-1.47714713159223e-003°)
1.37088176616484e-002	(-2.89994580877994e-009dB,-1.48055230740640e-003°)
1.37404197501251e-002	(-2.91333067402018e-009dB,-1.48396533296152e-003°)
1.37720946889394e-002	(-2.92677918487325e-009dB,-1.48738622635310e-003°)
1.38038426460288e-002	(-2.94028748402930e-009dB,-1.49081500571839e-003°)
1.38356637897177e-002	(-2.95385846447071e-009dB,-1.49425168923643e-003°)
1.38675582887188e-002	(-2.96749309052495e-009dB,-1.49769629512818e-003°)
1.38995263121334e-002	(-2.98118846920963e-009dB,-1.50114884165659e-003°)
1.39315680294529e-002	(-2.99495038648955e-009dB,-1.50460934712673e-003°)
1.39636836105593e-002	(-3.00877402072736e-009dB,-1.50807782988584e-003°)
1.39958732257261e-002	(-3.02266130057802e-009dB,-1.51155430832347e-003°)
1.40281370456195e-002	(-3.03661415469645e-009dB,-1.51503880087158e-003°)
1.40604752412990e-002	(-3.05062969010024e-009dB,-1.51853132600459e-003°)
1.40928879842186e-002	(-3.06471079977181e-009dB,-1.52203190223952e-003°)
1.41253754462274e-002	(-3.07885748371115e-009dB,-1.52554054813608e-003°)
1.41579377995707e-002	(-3.09306684893586e-009dB,-1.52905728229676e-003°)
1.41905752168908e-002	(-3.10734468141075e-009dB,-1.53258212336694e-003°)
1.42232878712281e-002	(-3.12168712382594e-009dB,-1.53611509003497e-003°)
1.42560759360218e-002	(-3.13609514050890e-009dB,-1.53965620103229e-003°)
1.42889395851109e-002	(-3.15056969578710e-009dB,-1.54320547513351e-003°)
1.43218789927353e-002	(-3.16511657562535e-009dB,-1.54676293115654e-003°)
1.43548943335364e-002	(-3.17972420809403e-009dB,-1.55032858796266e-003°)
1.43879857825583e-002	(-3.19439934348542e-009dB,-1.55390246445661e-003°)
1.44211535152486e-002	(-3.20914391045446e-009dB,-1.55748457958674e-003°)
1.44543977074592e-002	(-3.22396080198354e-009dB,-1.56107495234507e-003°)
1.44877185354475e-002	(-3.23884037479799e-009dB,-1.56467360176739e-003°)
1.45211161758773e-002	(-3.25378937919009e-009dB,-1.56828054693339e-003°)
1.45545908058195e-002	(-3.26880974381476e-009dB,-1.57189580696672e-003°)
1.45881426027534e-002	(-3.28389857568961e-009dB,-1.57551940103515e-003°)
1.46217717445671e-002	(-3.29905491048717e-009dB,-1.57915134835059e-003°)
1.46554784095590e-002	(-3.31428260551731e-009dB,-1.58279166816929e-003°)
1.46892627764385e-002	(-3.32958069645256e-009dB,-1.58644037979184e-003°)
1.47231250243271e-002	(-3.34494725463799e-009dB,-1.59009750256336e-003°)
1.47570653327588e-002	(-3.36038903036587e-009dB,-1.59376305587355e-003°)
1.47910838816819e-002	(-3.37589927334393e-009dB,-1.59743705915680e-003°)
1.48251808514594e-002	(-3.39148184088203e-009dB,-1.60111953189232e-003°)
1.48593564228699e-002	(-3.40713576865272e-009dB,-1.60481049360420e-003°)
1.48936107771090e-002	(-3.42286298531092e-009dB,-1.60850996386157e-003°)
1.49279440957898e-002	(-3.43865963354677e-009dB,-1.61221796227864e-003°)
1.49623565609442e-002	(-3.45453439230747e-009dB,-1.61593450851484e-003°)
1.49968483550236e-002	(-3.47047954697328e-009dB,-1.61965962227495e-003°)
1.50314196609001e-002	(-3.48649895485408e-009dB,-1.62339332330915e-003°)
1.50660706618673e-002	(-3.50259068729493e-009dB,-1.62713563141313e-003°)
1.51008015416413e-002	(-3.51875860160570e-009dB,-1.63088656642826e-003°)
1.51356124843619e-002	(-3.53500076913145e-009dB,-1.63464614824160e-003°)
1.51705036745932e-002	(-3.55131622554472e-009dB,-1.63841439678610e-003°)
1.52054752973248e-002	(-3.56771172113778e-009dB,-1.64219133204062e-003°)
1.52405275379728e-002	(-3.58417761263596e-009dB,-1.64597697403012e-003°)
1.52756605823806e-002	(-3.60072257898645e-009dB,-1.64977134282567e-003°)
1.53108746168202e-002	(-3.61733986989700e-009dB,-1.65357445854465e-003°)
1.53461698279928e-002	(-3.63403912864228e-009dB,-1.65738634135079e-003°)
1.53815464030302e-002	(-3.65081360493001e-009dB,-1.66120701145433e-003°)
1.54170045294954e-002	(-3.66766426308766e-009dB,-1.66503648911207e-003°)
1.54525443953840e-002	(-3.68459399609763e-009dB,-1.66887479462753e-003°)
1.54881661891247e-002	(-3.70159894665006e-009dB,-1.67272194835101e-003°)
1.55238700995807e-002	(-3.71868297205482e-009dB,-1.67657797067974e-003°)
1.55596563160506e-002	(-3.73585282260417e-009dB,-1.68044288205797e-003°)
1.55955250282694e-002	(-3.75309596204104e-009dB,-1.68431670297708e-003°)
1.56314764264094e-002	(-3.77041721200277e-009dB,-1.68819945397567e-003°)
1.56675107010813e-002	(-3.78782139412670e-009dB,-1.69209115563971e-003°)
1.57036280433354e-002	(-3.80530368677548e-009dB,-1.69599182860261e-003°)
1.57398286446620e-002	(-3.82286794725900e-009dB,-1.69990149354535e-003°)
1.57761126969933e-002	(-3.84051610423218e-009dB,-1.70382017119659e-003°)
1.58124803927037e-002	(-3.85824140740275e-009dB,-1.70774788233276e-003°)
1.58489319246110e-002	(-3.87604964273552e-009dB,-1.71168464777820e-003°)
1.58854674859776e-002	(-3.89393984590301e-009dB,-1.71563048840525e-003°)
1.59220872705115e-002	(-3.91191683854258e-009dB,-1.71958542513435e-003°)
1.59587914723672e-002	(-3.92997290603447e-009dB,-1.72354947893420e-003°)
1.59955802861465e-002	(-3.94811190568857e-009dB,-1.72752267082181e-003°)
1.60324539069002e-002	(-3.96633576615979e-009dB,-1.73150502186264e-003°)
1.60694125301286e-002	(-3.98464448744815e-009dB,-1.73549655317073e-003°)
1.61064563517825e-002	(-4.00303421224378e-009dB,-1.73949728590878e-003°)
1.61435855682647e-002	(-4.02151554814881e-009dB,-1.74350724128827e-003°)
1.61808003764305e-002	(-4.04007595890618e-009dB,-1.74752644056959e-003°)
1.62181009735891e-002	(-4.05872412346308e-009dB,-1.75155490506214e-003°)
1.62554875575047e-002	(-4.07745618450965e-009dB,-1.75559265612442e-003°)
1.62929603263971e-002	(-4.09627792801069e-009dB,-1.75963971516420e-003°)
1.63305194789432e-002	(-4.11518356800140e-009dB,-1.76369610363858e-003°)
1.63681652142779e-002	(-4.13418081910153e-009dB,-1.76776184305413e-003°)
1.64058977319952e-002	(-4.15326293101879e-009dB,-1.77183695496699e-003°)
1.64437172321491e-002	(-4.17243376106305e-009dB,-1.77592146098300e-003°)
1.64816239152549e-002	(-4.19169041625193e-009dB,-1.78001538275780e-003°)
1.65196179822900e-002	(-4.21104061120515e-009dB,-1.78411874199697e-003°)
1.65576996346951e-002	(-4.23047566697550e-009dB,-1.78823156045610e-003°)
1.65958690743754e-002	(-4.25000715549261e-009dB,-1.79235385994094e-003°)
1.66341265037015e-002	(-4.26962254049939e-009dB,-1.79648566230752e-003°)
1.66724721255104e-002	(-4.28933146527052e-009dB,-1.80062698946225e-003°)
1.67109061431069e-002	(-4.30913007249612e-009dB,-1.80477786336202e-003°)
1.67494287602642e-002	(-4.32901932650367e-009dB,-1.80893830601436e-003°)
1.67880401812254e-002	(-4.34900115594810e-009dB,-1.81310833947752e-003°)
1.68267406107045e-002	(-4.36907556082942e-009dB,-1.81728798586060e-003°)
1.68655302538872e-002	(-4.38924157682015e-009dB,-1.82147726732368e-003°)
1.69044093164324e-002	(-4.40950306123016e-009dB,-1.82567620607790e-003°)
1.69433780044731e-002	(-4.42985615674959e-009dB,-1.82988482438562e-003°)
1.69824365246172e-002	(-4.45030182770591e-009dB,-1.83410314456051e-003°)
1.70215850839493e-002	(-4.47084296708151e-009dB,-1.83833118896769e-003°)
1.70608238900310e-002	(-4.49147861054893e-009dB,-1.84256898002383e-003°)
1.71001531509027e-002	(-4.51221261541804e-009dB,-1.84681654019728e-003°)
1.71395730750841e-002	(-4.53303823139656e-009dB,-1.85107389200817e-003°)
1.71790838715757e-002	(-4.55396028012185e-009dB,-1.85534105802857e-003°)
1.72186857498599e-002	(-4.57498165457629e-009dB,-1.85961806088256e-003°)
1.72583789199018e-002	(-4.59610139043242e-009dB,-1.86390492324638e-003°)
1.72981635921508e-002	(-4.61731563038038e-009dB,-1.86820166784856e-003°)
1.73380399775412e-002	(-4.63862919605750e-009dB,-1.87250831747000e-003°)
1.73780082874935e-002	(-4.66004015880884e-009dB,-1.87682489494413e-003°)
1.74180687339159e-002	(-4.68154755430694e-009dB,-1.88115142315702e-003°)
1.74582215292048e-002	(-4.70315620418914e-009dB,-1.88548792504748e-003°)
1.74984668862464e-002	(-4.72486610845544e-009dB,-1.88983442360723e-003°)
1.75388050184174e-002	(-4.74667437412343e-009dB,-1.89419094188096e-003°)
1.75792361395867e-002	(-4.76858485850299e-009dB,-1.89855750296649e-003°)
1.76197604641161e-002	(-4.79059563293918e-009dB,-1.90293413001491e-003°)
1.76603782068614e-002	(-4.81270669743201e-009dB,-1.90732084623065e-003°)
1.77010895831740e-002	(-4.83491901630893e-009dB,-1.91171767487164e-003°)
1.77418948089014e-002	(-4.85723933986223e-009dB,-1.91612463924944e-003°)
1.77827941003890e-002	(-4.87965898914469e-009dB,-1.92054176272932e-003°)
1.78237876744807e-002	(-4.90218182146619e-009dB,-1.92496906873044e-003°)
1.78648757485203e-002	(-4.92481265846406e-009dB,-1.92940658072593e-003°)
1.79060585403527e-002	(-4.94754282119111e-009dB,-1.93385432224304e-003°)
1.79473362683250e-002	(-4.97037905993960e-009dB,-1.93831231686325e-003°)
1.79887091512877e-002	(-4.99332233903699e-009dB,-1.94278058822241e-003°)
1.80301774085955e-002	(-5.01636783684596e-009dB,-1.94725916001084e-003°)
1.80717412601090e-002	(-5.03952230365877e-009dB,-1.95174805597350e-003°)
1.81134009261958e-002	(-5.06278477514797e-009dB,-1.95624729991005e-003°)
1.81551566277311e-002	(-5.08615332265861e-009dB,-1.96075691567504e-003°)
1.81970085860996e-002	(-5.10962891051816e-009dB,-1.96527692717800e-003°)
1.82389570231961e-002	(-5.13321539603649e-009dB,-1.96980735838359e-003°)
1.82810021614272e-002	(-5.15690795757627e-009dB,-1.97434823331170e-003°)
1.83231442237119e-002	(-5.18071238110231e-009dB,-1.97889957603760e-003°)
1.83653834334832e-002	(-5.20462673795966e-009dB,-1.98346141069205e-003°)
1.84077200146893e-002	(-5.22864909949339e-009dB,-1.98803376146145e-003°)
1.84501541917945e-002	(-5.25278428734085e-009dB,-1.99261665258794e-003°)
1.84926861897805e-002	(-5.27703133717457e-009dB,-1.99721010836956e-003°)
1.85353162341479e-002	(-5.30138639168467e-009dB,-2.00181415316035e-003°)
1.85780445509167e-002	(-5.32585620116343e-009dB,-2.00642881137050e-003°)
1.86208713666284e-002	(-5.35044172993831e-009dB,-2.01105410746648e-003°)
1.86637969083464e-002	(-5.37513622771705e-009dB,-2.01569006597113e-003°)
1.87068214036577e-002	(-5.39994644479193e-009dB,-2.02033671146384e-003°)
