Freq.	V(vout)
1.00000000000000e-002	(-1.64595944346003e-009dB,-1.07999999996376e-003°)
1.00230523807790e-002	(-1.65355545091551e-009dB,-1.08248965708764e-003°)
1.00461579027840e-002	(-1.66119003146967e-009dB,-1.08498505346392e-003°)
1.00693166885180e-002	(-1.66885643483024e-009dB,-1.08748620232295e-003°)
1.00925288607668e-002	(-1.67656044696202e-009dB,-1.08999311692557e-003°)
1.01157945425990e-002	(-1.68430013921007e-009dB,-1.09250581056318e-003°)
1.01391138573668e-002	(-1.69207454724694e-009dB,-1.09502429655784e-003°)
1.01624869287070e-002	(-1.69988270674514e-009dB,-1.09754858826232e-003°)
1.01859138805412e-002	(-1.70773040366949e-009dB,-1.10007869906015e-003°)
1.02093948370768e-002	(-1.71561281638265e-009dB,-1.10261464236573e-003°)
1.02329299228075e-002	(-1.72353187353956e-009dB,-1.10515643162438e-003°)
1.02565192625141e-002	(-1.73148661081274e-009dB,-1.10770408031242e-003°)
1.02801629812647e-002	(-1.73947992118459e-009dB,-1.11025760193722e-003°)
1.03038612044162e-002	(-1.74750698301780e-009dB,-1.11281701003730e-003°)
1.03276140576140e-002	(-1.75557261794967e-009dB,-1.11538231818239e-003°)
1.03514216667934e-002	(-1.76367586165276e-009dB,-1.11795353997350e-003°)
1.03752841581801e-002	(-1.77181767845453e-009dB,-1.12053068904298e-003°)
1.03992016582906e-002	(-1.77999517537257e-009dB,-1.12311377905463e-003°)
1.04231742939330e-002	(-1.78821220971676e-009dB,-1.12570282370373e-003°)
1.04472021922080e-002	(-1.79646685283216e-009dB,-1.12829783671714e-003°)
1.04712854805090e-002	(-1.80475814039130e-009dB,-1.13089883185336e-003°)
1.04954242865232e-002	(-1.81308992970406e-009dB,-1.13350582290261e-003°)
1.05196187382322e-002	(-1.82145836346056e-009dB,-1.13611882368689e-003°)
1.05438689639126e-002	(-1.82986537031574e-009dB,-1.13873784806008e-003°)
1.05681750921366e-002	(-1.83830998594213e-009dB,-1.14136290990798e-003°)
1.05925372517729e-002	(-1.84679703197707e-009dB,-1.14399402314840e-003°)
1.06169555719872e-002	(-1.85532168678321e-009dB,-1.14663120173125e-003°)
1.06414301822431e-002	(-1.86388395036057e-009dB,-1.14927445963859e-003°)
1.06659612123026e-002	(-1.87248864434648e-009dB,-1.15192381088471e-003°)
1.06905487922266e-002	(-1.88113191143106e-009dB,-1.15457926951619e-003°)
1.07151930523760e-002	(-1.88981568026926e-009dB,-1.15724084961203e-003°)
1.07398941234124e-002	(-1.89853609355120e-009dB,-1.15990856528365e-003°)
1.07646521362983e-002	(-1.90729990156916e-009dB,-1.16258243067502e-003°)
1.07894672222983e-002	(-1.91610421134073e-009dB,-1.16526245996270e-003°)
1.08143395129794e-002	(-1.92494902286591e-009dB,-1.16794866735594e-003°)
1.08392691402120e-002	(-1.93383240748977e-009dB,-1.17064106709675e-003°)
1.08642562361706e-002	(-1.94276015117712e-009dB,-1.17333967345996e-003°)
1.08893009333343e-002	(-1.95172839661807e-009dB,-1.17604450075331e-003°)
1.09144033644875e-002	(-1.96073810814011e-009dB,-1.17875556331754e-003°)
1.09395636627209e-002	(-1.96978639276083e-009dB,-1.18147287552642e-003°)
1.09647819614318e-002	(-1.97887807211756e-009dB,-1.18419645178687e-003°)
1.09900583943252e-002	(-1.98801218188284e-009dB,-1.18692630653902e-003°)
1.10153930954141e-002	(-1.99718968638413e-009dB,-1.18966245425629e-003°)
1.10407861990207e-002	(-2.00640672831157e-009dB,-1.19240490944546e-003°)
1.10662378397766e-002	(-2.01566909362996e-009dB,-1.19515368664677e-003°)
1.10917481526240e-002	(-2.02497196070196e-009dB,-1.19790880043394e-003°)
1.11173172728159e-002	(-2.03431918683745e-009dB,-1.20067026541432e-003°)
1.11429453359173e-002	(-2.04370980770895e-009dB,-1.20343809622893e-003°)
1.11686324778056e-002	(-2.05314285898900e-009dB,-1.20621230755252e-003°)
1.11943788346715e-002	(-2.06261834067759e-009dB,-1.20899291409369e-003°)
1.12201845430196e-002	(-2.07214011008461e-009dB,-1.21177993059493e-003°)
1.12460497396692e-002	(-2.08170527422764e-009dB,-1.21457337183273e-003°)
1.12719745617551e-002	(-2.09131286877921e-009dB,-1.21737325261765e-003°)
1.12979591467279e-002	(-2.10096675104921e-009dB,-1.22017958779436e-003°)
1.13240036323555e-002	(-2.11066402805522e-009dB,-1.22299239224178e-003°)
1.13501081567231e-002	(-2.12040662845218e-009dB,-1.22581168087311e-003°)
1.13762728582343e-002	(-2.13019455224009e-009dB,-1.22863746863595e-003°)
1.14024978756117e-002	(-2.14002587076402e-009dB,-1.23146977051233e-003°)
1.14287833478977e-002	(-2.14990540566130e-009dB,-1.23430860151885e-003°)
1.14551294144553e-002	(-2.15982737096712e-009dB,-1.23715397670670e-003°)
1.14815362149688e-002	(-2.16979658831884e-009dB,-1.24000591116178e-003°)
1.15080038894443e-002	(-2.17981209338897e-009dB,-1.24286442000476e-003°)
1.15345325782109e-002	(-2.18987388617752e-009dB,-1.24572951839116e-003°)
1.15611224219210e-002	(-2.19998100235701e-009dB,-1.24860122151147e-003°)
1.15877735615512e-002	(-2.21013537058240e-009dB,-1.25147954459115e-003°)
1.16144861384034e-002	(-2.22033891950860e-009dB,-1.25436450289079e-003°)
1.16412602941049e-002	(-2.23058779182576e-009dB,-1.25725611170616e-003°)
1.16680961706096e-002	(-2.24088295186133e-009dB,-1.26015438636827e-003°)
1.16949939101987e-002	(-2.25122536394279e-009dB,-1.26305934224349e-003°)
1.17219536554813e-002	(-2.26161792105253e-009dB,-1.26597099473361e-003°)
1.17489755493953e-002	(-2.27205676588070e-009dB,-1.26888935927592e-003°)
1.17760597352080e-002	(-2.28254286275474e-009dB,-1.27181445134329e-003°)
1.18032063565173e-002	(-2.29307910465708e-009dB,-1.27474628644427e-003°)
1.18304155572516e-002	(-2.30366259860530e-009dB,-1.27768488012317e-003°)
1.18576874816716e-002	(-2.31429720190928e-009dB,-1.28063024796011e-003°)
1.18850222743701e-002	(-2.32498002158661e-009dB,-1.28358240557114e-003°)
1.19124200802737e-002	(-2.33571105763730e-009dB,-1.28654136860830e-003°)
1.19398810446427e-002	(-2.34649127438880e-009dB,-1.28950715275973e-003°)
1.19674053130724e-002	(-2.35732260049606e-009dB,-1.29247977374971e-003°)
1.19949930314937e-002	(-2.36820503595907e-009dB,-1.29545924733878e-003°)
1.20226443461741e-002	(-2.37913472346797e-009dB,-1.29844558932383e-003°)
1.20503594037179e-002	(-2.39011648466010e-009dB,-1.30143881553812e-003°)
1.20781383510677e-002	(-2.40114839088051e-009dB,-1.30443894185147e-003°)
1.21059813355048e-002	(-2.41223333511161e-009dB,-1.30744598417022e-003°)
1.21338885046497e-002	(-2.42336649571607e-009dB,-1.31045995843743e-003°)
1.21618600064636e-002	(-2.43455269433122e-009dB,-1.31348088063288e-003°)
1.21898959892486e-002	(-2.44579096662958e-009dB,-1.31650876677321e-003°)
1.22179966016487e-002	(-2.45707938395624e-009dB,-1.31954363291196e-003°)
1.22461619926504e-002	(-2.46842083929359e-009dB,-1.32258549513969e-003°)
1.22743923115840e-002	(-2.47981340398670e-009dB,-1.32563436958406e-003°)
1.23026877081238e-002	(-2.49125900669049e-009dB,-1.32869027240989e-003°)
1.23310483322890e-002	(-2.50275957605991e-009dB,-1.33175321981927e-003°)
1.23594743344450e-002	(-2.51431221911256e-009dB,-1.33482322805165e-003°)
1.23879658653036e-002	(-2.52591693584843e-009dB,-1.33790031338390e-003°)
1.24165230759240e-002	(-2.53757758357739e-009dB,-1.34098449213043e-003°)
1.24451461177138e-002	(-2.54928837633464e-009dB,-1.34407578064324e-003°)
1.24738351424294e-002	(-2.56105606441245e-009dB,-1.34717419531204e-003°)
1.25025903021771e-002	(-2.57287775482842e-009dB,-1.35027975256431e-003°)
1.25314117494141e-002	(-2.58475344758255e-009dB,-1.35339246886541e-003°)
1.25602996369487e-002	(-2.59668410700231e-009dB,-1.35651236071865e-003°)
1.25892541179416e-002	(-2.60867069741516e-009dB,-1.35963944466539e-003°)
1.26182753459066e-002	(-2.62071129016617e-009dB,-1.36277373728511e-003°)
1.26473634747114e-002	(-2.63280684958280e-009dB,-1.36591525519553e-003°)
1.26765186585784e-002	(-2.64495930432000e-009dB,-1.36906401505265e-003°)
1.27057410520853e-002	(-2.65716961870522e-009dB,-1.37222003355089e-003°)
1.27350308101665e-002	(-2.66943297110114e-009dB,-1.37538332742314e-003°)
1.27643880881134e-002	(-2.68175418314509e-009dB,-1.37855391344088e-003°)
1.27938130415752e-002	(-2.69413229050960e-009dB,-1.38173180841423e-003°)
1.28233058265601e-002	(-2.70656922184960e-009dB,-1.38491702919208e-003°)
1.28528665994361e-002	(-2.71906208418270e-009dB,-1.38810959266215e-003°)
1.28824955169313e-002	(-2.73161184183636e-009dB,-1.39130951575110e-003°)
1.29121927361353e-002	(-2.74421945913806e-009dB,-1.39451681542460e-003°)
1.29419584144998e-002	(-2.75688686474271e-009dB,-1.39773150868742e-003°)
1.29717927098395e-002	(-2.76961309432286e-009dB,-1.40095361258357e-003°)
1.30016957803328e-002	(-2.78239718355105e-009dB,-1.40418314419630e-003°)
1.30316677845229e-002	(-2.79523816809979e-009dB,-1.40742012064828e-003°)
1.30617088813183e-002	(-2.80814086960644e-009dB,-1.41066455910163e-003°)
1.30918192299940e-002	(-2.82110335941605e-009dB,-1.41391647675804e-003°)
1.31219989901920e-002	(-2.83412467320116e-009dB,-1.41717589085885e-003°)
1.31522483219223e-002	(-2.84720673961670e-009dB,-1.42044281868516e-003°)
1.31825673855640e-002	(-2.86034955866267e-009dB,-1.42371727755789e-003°)
1.32129563418657e-002	(-2.87355120168414e-009dB,-1.42699928483790e-003°)
1.32434153519466e-002	(-2.88681649031845e-009dB,-1.43028885792606e-003°)
1.32739445772973e-002	(-2.90014060292825e-009dB,-1.43358601426335e-003°)
1.33045441797808e-002	(-2.91352739682342e-009dB,-1.43689077133099e-003°)
1.33352143216332e-002	(-2.92697494334903e-009dB,-1.44020314665045e-003°)
1.33659551654643e-002	(-2.94048517116001e-009dB,-1.44352315778362e-003°)
1.33967668742593e-002	(-2.95405808025635e-009dB,-1.44685082233287e-003°)
1.34276496113786e-002	(-2.96769463496553e-009dB,-1.45018615794115e-003°)
1.34586035405594e-002	(-2.98139290663261e-009dB,-1.45352918229207e-003°)
1.34896288259164e-002	(-2.99515193093012e-009dB,-1.45687991311002e-003°)
1.35207256319427e-002	(-3.00897845815034e-009dB,-1.46023836816024e-003°)
1.35518941235103e-002	(-3.02286670232847e-009dB,-1.46360456524892e-003°)
1.35831344658714e-002	(-3.03682052077436e-009dB,-1.46697852222330e-003°)
1.36144468246594e-002	(-3.05083798483309e-009dB,-1.47036025697177e-003°)
1.36458313658892e-002	(-3.06491813017719e-009dB,-1.47374978742395e-003°)
1.36772882559584e-002	(-3.07906674277147e-009dB,-1.47714713155079e-003°)
1.37088176616484e-002	(-3.09327900097858e-009dB,-1.48055230736467e-003°)
1.37404197501251e-002	(-3.10755779778093e-009dB,-1.48396533291950e-003°)
1.37720946889394e-002	(-3.12189927586865e-009dB,-1.48738622631079e-003°)
1.38038426460288e-002	(-3.13631018553402e-009dB,-1.49081500567579e-003°)
1.38356637897177e-002	(-3.15078763379462e-009dB,-1.49425168919354e-003°)
1.38675582887188e-002	(-3.16533162065047e-009dB,-1.49769629508499e-003°)
1.38995263121334e-002	(-3.17994021744662e-009dB,-1.50114884161310e-003°)
1.39315680294529e-002	(-3.19461728149294e-009dB,-1.50460934708293e-003°)
1.39636836105593e-002	(-3.20936474144438e-009dB,-1.50807782984174e-003°)
1.39958732257261e-002	(-3.22417873999106e-009dB,-1.51155430827907e-003°)
1.40281370456195e-002	(-3.23906120578791e-009dB,-1.51503880082687e-003°)
1.40604752412990e-002	(-3.25401117450748e-009dB,-1.51853132595956e-003°)
1.40928879842186e-002	(-3.26903057480468e-009dB,-1.52203190219418e-003°)
1.41253754462274e-002	(-3.28412229966193e-009dB,-1.52554054809043e-003°)
1.41579377995707e-002	(-3.29927863445950e-009dB,-1.52905728225080e-003°)
1.41905752168908e-002	(-3.31450825814457e-009dB,-1.53258212332065e-003°)
1.42232878712281e-002	(-3.32980731340729e-009dB,-1.53611508998836e-003°)
1.42560759360218e-002	(-3.34517676457512e-009dB,-1.53965620098536e-003°)
1.42889395851109e-002	(-3.36061564732060e-009dB,-1.54320547508626e-003°)
1.43218789927353e-002	(-3.37612781895359e-009dB,-1.54676293110896e-003°)
1.43548943335364e-002	(-3.39171135081916e-009dB,-1.55032858791474e-003°)
1.43879857825583e-002	(-3.40736720724478e-009dB,-1.55390246440837e-003°)
1.44211535152486e-002	(-3.42309538823045e-009dB,-1.55748457953816e-003°)
1.44543977074592e-002	(-3.43889589377617e-009dB,-1.56107495229615e-003°)
1.44877185354475e-002	(-3.45476968820940e-009dB,-1.56467360171813e-003°)
1.45211161758773e-002	(-3.47071677153015e-009dB,-1.56828054688379e-003°)
1.45545908058195e-002	(-3.48673521508348e-009dB,-1.57189580691678e-003°)
1.45881426027534e-002	(-3.50282887617927e-009dB,-1.57551940098486e-003°)
1.46217717445671e-002	(-3.51899775481750e-009dB,-1.57915134829996e-003°)
1.46554784095590e-002	(-3.53523992234325e-009dB,-1.58279166811830e-003°)
1.46892627764385e-002	(-3.55155923606639e-009dB,-1.58644037974050e-003°)
1.47231250243271e-002	(-3.56795183867705e-009dB,-1.59009750251167e-003°)
1.47570653327588e-002	(-3.58441965883016e-009dB,-1.59376305582150e-003°)
1.47910838816819e-002	(-3.60096462518066e-009dB,-1.59743705910439e-003°)
1.48251808514594e-002	(-3.61758770205601e-009dB,-1.60111953183954e-003°)
1.48593564228699e-002	(-3.63428503214635e-009dB,-1.60481049355106e-003°)
1.48936107771090e-002	(-3.65105950843408e-009dB,-1.60850996380805e-003°)
1.49279440957898e-002	(-3.66791305957413e-009dB,-1.61221796222475e-003°)
1.49623565609442e-002	(-3.68484375691158e-009dB,-1.61593450846059e-003°)
1.49968483550236e-002	(-3.70185256477388e-009dB,-1.61965962222032e-003°)
1.50314196609001e-002	(-3.71893755450610e-009dB,-1.62339332325414e-003°)
1.50660706618673e-002	(-3.73610451207305e-009dB,-1.62713563135774e-003°)
1.51008015416413e-002	(-3.75335054449232e-009dB,-1.63088656637248e-003°)
1.51356124843619e-002	(-3.77067372310899e-009dB,-1.63464614818544e-003°)
1.51705036745932e-002	(-3.78807983388785e-009dB,-1.63841439672955e-003°)
1.52054752973248e-002	(-3.80556212653663e-009dB,-1.64219133198368e-003°)
1.52405275379728e-002	(-3.82312928000255e-009dB,-1.64597697397278e-003°)
1.52756605823806e-002	(-3.84077647264826e-009dB,-1.64977134276793e-003°)
1.53108746168202e-002	(-3.85850466880123e-009dB,-1.65357445848651e-003°)
1.53461698279928e-002	(-3.87631483278894e-009dB,-1.65738634129225e-003°)
1.53815464030302e-002	(-3.89420600028390e-009dB,-1.66120701139539e-003°)
1.54170045294954e-002	(-3.91218106426853e-009dB,-1.66503648905272e-003°)
1.54525443953840e-002	(-3.93023906041536e-009dB,-1.66887479456776e-003°)
1.54881661891247e-002	(-3.94837998872439e-009dB,-1.67272194829083e-003°)
1.55238700995807e-002	(-3.96660384919562e-009dB,-1.67657797061914e-003°)
1.55596563160506e-002	(-3.98491449913891e-009dB,-1.68044288199695e-003°)
1.55955250282694e-002	(-4.00330711691694e-009dB,-1.68431670291564e-003°)
1.56314764264094e-002	(-4.02178652416704e-009dB,-1.68819945391380e-003°)
1.56675107010813e-002	(-4.04034982790680e-009dB,-1.69209115557742e-003°)
1.57036280433354e-002	(-4.05899799246371e-009dB,-1.69599182853988e-003°)
1.57398286446620e-002	(-4.07773583947508e-009dB,-1.69990149348219e-003°)
1.57761126969933e-002	(-4.09655758297612e-009dB,-1.70382017113299e-003°)
1.58124803927037e-002	(-4.11546515162177e-009dB,-1.70774788226872e-003°)
1.58489319246110e-002	(-4.13446336704936e-009dB,-1.71168464771372e-003°)
1.58854674859776e-002	(-4.15354644329409e-009dB,-1.71563048834032e-003°)
1.59220872705115e-002	(-4.17271630901089e-009dB,-1.71958542506897e-003°)
1.59587914723672e-002	(-4.19197875016457e-009dB,-1.72354947886837e-003°)
1.59955802861465e-002	(-4.21132894511778e-009dB,-1.72752267075552e-003°)
1.60324539069002e-002	(-4.23076592954308e-009dB,-1.73150502179589e-003°)
1.60694125301286e-002	(-4.25029452507778e-009dB,-1.73549655310352e-003°)
1.61064563517825e-002	(-4.26991376739443e-009dB,-1.73949728584110e-003°)
1.61435855682647e-002	(-4.28962269216556e-009dB,-1.74350724122012e-003°)
1.61808003764305e-002	(-4.30942226371863e-009dB,-1.74752644050097e-003°)
1.62181009735891e-002	(-4.32931248205365e-009dB,-1.75155490499304e-003°)
1.62554875575047e-002	(-4.34929527582555e-009dB,-1.75559265605485e-003°)
1.62929603263971e-002	(-4.36937160936180e-009dB,-1.75963971509415e-003°)
1.63305194789432e-002	(-4.38953858968000e-009dB,-1.76369610356804e-003°)
1.63681652142779e-002	(-4.40980007409001e-009dB,-1.76776184298310e-003°)
1.64058977319952e-002	(-4.43015702691931e-009dB,-1.77183695489547e-003°)
1.64437172321491e-002	(-4.45060366220309e-009dB,-1.77592146091098e-003°)
1.64816239152549e-002	(-4.47114769456109e-009dB,-1.78001538268529e-003°)
1.65196179822900e-002	(-4.49178430235598e-009dB,-1.78411874192395e-003°)
1.65576996346951e-002	(-4.51251927155256e-009dB,-1.78823156038257e-003°)
1.65958690743754e-002	(-4.53334681618602e-009dB,-1.79235385986691e-003°)
1.66341265037015e-002	(-4.55427175789371e-009dB,-1.79648566223297e-003°)
1.66724721255104e-002	(-4.57529313234815e-009dB,-1.80062698938718e-003°)
1.67109061431069e-002	(-4.59641286820428e-009dB,-1.80477786328644e-003°)
1.67494287602642e-002	(-4.61762903680718e-009dB,-1.80893830593825e-003°)
1.67880401812254e-002	(-4.63894260248429e-009dB,-1.81310833940088e-003°)
1.68267406107045e-002	(-4.66035452956310e-009dB,-1.81728798578344e-003°)
1.68655302538872e-002	(-4.68186578237108e-009dB,-1.82147726724597e-003°)
1.69044093164324e-002	(-4.70347732523568e-009dB,-1.82567620599965e-003°)
1.69433780044731e-002	(-4.72518626517451e-009dB,-1.82988482430683e-003°)
1.69824365246172e-002	(-4.74699742382490e-009dB,-1.83410314448118e-003°)
1.70215850839493e-002	(-4.76890694387700e-009dB,-1.83833118888781e-003°)
1.70608238900310e-002	(-4.79092157562306e-009dB,-1.84256897994340e-003°)
1.71001531509027e-002	(-4.81303553309828e-009dB,-1.84681654011629e-003°)
1.71395730750841e-002	(-4.83524978063014e-009dB,-1.85107389192662e-003°)
1.71790838715757e-002	(-4.85756721120104e-009dB,-1.85534105794645e-003°)
1.72186857498599e-002	(-4.87998975346590e-009dB,-1.85961806079987e-003°)
1.72583789199018e-002	(-4.90251547876981e-009dB,-1.86390492316312e-003°)
1.72981635921508e-002	(-4.92514342278528e-009dB,-1.86820166776472e-003°)
1.73380399775412e-002	(-4.94787744282219e-009dB,-1.87250831738558e-003°)
1.73780082874935e-002	(-4.97071657455308e-009dB,-1.87682489485912e-003°)
1.74180687339159e-002	(-4.99365985365048e-009dB,-1.88115142307142e-003°)
1.74582215292048e-002	(-5.01671017309679e-009dB,-1.88548792496130e-003°)
1.74984668862464e-002	(-5.03986656856453e-009dB,-1.88983442352044e-003°)
1.75388050184174e-002	(-5.06312904005373e-009dB,-1.89419094179357e-003°)
1.75792361395867e-002	(-5.08649951621930e-009dB,-1.89855750287850e-003°)
1.76197604641161e-002	(-5.10997703273379e-009dB,-1.90293412992631e-003°)
1.76603782068614e-002	(-5.13356255392465e-009dB,-1.90732084614143e-003°)
1.77010895831740e-002	(-5.15725897277431e-009dB,-1.91171767478181e-003°)
1.77418948089014e-002	(-5.18106243197287e-009dB,-1.91612463915898e-003°)
1.77827941003890e-002	(-5.20497871748516e-009dB,-1.92054176263823e-003°)
1.78237876744807e-002	(-5.22900493632877e-009dB,-1.92496906863872e-003°)
1.78648757485203e-002	(-5.25313915984876e-009dB,-1.92940658063357e-003°)
1.79060585403527e-002	(-5.27738717400994e-009dB,-1.93385432215004e-003°)
1.79473362683250e-002	(-5.30174608582991e-009dB,-1.93831231676961e-003°)
1.79887091512877e-002	(-5.32621685963614e-009dB,-1.94278058812812e-003°)
1.80301774085955e-002	(-5.35080238841102e-009dB,-1.94725915991591e-003°)
1.80717412601090e-002	(-5.37550170782710e-009dB,-1.95174805587790e-003°)
1.81134009261958e-002	(-5.40031385355691e-009dB,-1.95624729981379e-003°)
1.81551566277311e-002	(-5.42524075425538e-009dB,-1.96075691557811e-003°)
1.81970085860996e-002	(-5.45028144559505e-009dB,-1.96527692708040e-003°)
1.82389570231961e-002	(-5.47543978488578e-009dB,-1.96980735828531e-003°)
1.82810021614272e-002	(-5.50071287914518e-009dB,-1.97434823321274e-003°)
1.83231442237119e-002	(-5.52610265702817e-009dB,-1.97889957593796e-003°)
1.83653834334832e-002	(-5.55161104718971e-009dB,-1.98346141059171e-003°)
1.84077200146893e-002	(-5.57723419231991e-009dB,-1.98803376136042e-003°)
1.84501541917945e-002	(-5.60297884271105e-009dB,-1.99261665248621e-003°)
1.84926861897805e-002	(-5.62884114105327e-009dB,-1.99721010826712e-003°)
1.85353162341479e-002	(-5.65482108734655e-009dB,-2.00181415305721e-003°)
1.85780445509167e-002	(-5.68092350322825e-009dB,-2.00642881126665e-003°)
1.86208713666284e-002	(-5.70714646004342e-009dB,-2.01105410736190e-003°)
1.86637969083464e-002	(-5.73348899346461e-009dB,-2.01569006586582e-003°)
1.87068214036577e-002	(-5.75995303214674e-009dB,-2.02033671135781e-003°)
