Freq.	V(n003)
Step Information: Hola=10m  (Run: 1/5)
1.00000000000000e+000	(1.28899685181916e-002dB,-1.77542857473339e+002°)
1.02329299228075e+000	(1.35004291806516e-002dB,-1.77485758405075e+002°)
1.04712854805090e+000	(1.41395845660458e-002dB,-1.77427338971776e+002°)
1.07151930523761e+000	(1.48087797611613e-002dB,-1.77367569105345e+002°)
1.09647819614318e+000	(1.55094225504469e-002dB,-1.77306418085926e+002°)
1.12201845430196e+000	(1.62429863005018e-002dB,-1.77243854530513e+002°)
1.14815362149688e+000	(1.70110129792338e-002dB,-1.77179846381066e+002°)
1.17489755493953e+000	(1.78151163105150e-002dB,-1.77114360892593e+002°)
1.20226443461741e+000	(1.86569850636980e-002dB,-1.77047364621786e+002°)
1.23026877081238e+000	(1.95383865002969e-002dB,-1.76978823414757e+002°)
1.25892541179417e+000	(2.04611699632705e-002dB,-1.76908702395751e+002°)
1.28824955169313e+000	(2.14272706323851e-002dB,-1.76836965955318e+002°)
1.31825673855641e+000	(2.24387134424524e-002dB,-1.76763577738848e+002°)
1.34896288259165e+000	(2.34976171767858e-002dB,-1.76688500635017e+002°)
1.38038426460288e+000	(2.46061987373911e-002dB,-1.76611696764631e+002°)
1.41253754462275e+000	(2.57667776052346e-002dB,-1.76533127469384e+002°)
1.44543977074593e+000	(2.69817804876986e-002dB,-1.76452753301376e+002°)
1.47910838816821e+000	(2.82537461843765e-002dB,-1.76370534011701e+002°)
1.51356124843621e+000	(2.95853306400878e-002dB,-1.76286428540952e+002°)
1.54881661891248e+000	(3.09793122388663e-002dB,-1.76200395008460e+002°)
1.58489319246111e+000	(3.24385973062855e-002dB,-1.76112390703162e+002°)
1.62181009735893e+000	(3.39662258579101e-002dB,-1.76022372074144e+002°)
1.65958690743756e+000	(3.55653775874765e-002dB,-1.75930294721951e+002°)
1.69824365246174e+000	(3.72393781077467e-002dB,-1.75836113390441e+002°)
1.73780082874937e+000	(3.89917054579486e-002dB,-1.75739781958967e+002°)
1.77827941003892e+000	(4.08259968737389e-002dB,-1.75641253435768e+002°)
1.81970085860998e+000	(4.27460558450024e-002dB,-1.75540479951670e+002°)
1.86208713666287e+000	(4.47558594701199e-002dB,-1.75437412754303e+002°)
1.90546071796325e+000	(4.68595660902860e-002dB,-1.75332002204354e+002°)
1.94984459975804e+000	(4.90615232577649e-002dB,-1.75224197771493e+002°)
1.99526231496888e+000	(5.13662760151317e-002dB,-1.75113948031924e+002°)
2.04173794466953e+000	(5.37785754913143e-002dB,-1.75001200667818e+002°)
2.08929613085404e+000	(5.63033878724885e-002dB,-1.74885902466274e+002°)
2.13796208950223e+000	(5.89459036887615e-002dB,-1.74767999321489e+002°)
2.18776162394955e+000	(6.17115474711572e-002dB,-1.74647436237915e+002°)
2.23872113856834e+000	(6.46059878046644e-002dB,-1.74524157333907e+002°)
2.29086765276777e+000	(6.76351477306711e-002dB,-1.74398105848661e+002°)
2.34422881531992e+000	(7.08052155413805e-002dB,-1.74269224150957e+002°)
2.39883291901949e+000	(7.41226560144909e-002dB,-1.74137453748217e+002°)
2.45470891568503e+000	(7.75942219888158e-002dB,-1.74002735300802e+002°)
2.51188643150958e+000	(8.12269664346771e-002dB,-1.73865008635396e+002°)
2.57039578276886e+000	(8.50282548838455e-002dB,-1.73724212763838e+002°)
2.63026799189538e+000	(8.90057783404206e-002dB,-1.73580285902770e+002°)
2.69153480392691e+000	(9.31675665977620e-002dB,-1.73433165497688e+002°)
2.75422870333816e+000	(9.75220020280515e-002dB,-1.73282788249183e+002°)
2.81838293126445e+000	(1.02077833827014e-001dB,-1.73129090142572e+002°)
2.88403150312660e+000	(1.06844192661957e-001dB,-1.72972006483126e+002°)
2.95120922666638e+000	(1.11830605869790e-001dB,-1.72811471931948e+002°)
3.01995172040201e+000	(1.17047013029663e-001dB,-1.72647420549185e+002°)
3.09029543251359e+000	(1.22503782041975e-001dB,-1.72479785840079e+002°)
3.16227766016837e+000	(1.28211725676283e-001dB,-1.72308500805543e+002°)
3.23593656929628e+000	(1.34182118529203e-001dB,-1.72133497999350e+002°)
3.31131121482591e+000	(1.40426714482265e-001dB,-1.71954709589104e+002°)
3.38844156139202e+000	(1.46957764584646e-001dB,-1.71772067423580e+002°)
3.46736850452531e+000	(1.53788035343458e-001dB,-1.71585503106894e+002°)
3.54813389233575e+000	(1.60930827500772e-001dB,-1.71394948077123e+002°)
3.63078054770101e+000	(1.68399995118253e-001dB,-1.71200333694581e+002°)
3.71535229097172e+000	(1.76209965149073e-001dB,-1.71001591334309e+002°)
3.80189396320560e+000	(1.84375757302505e-001dB,-1.70798652488176e+002°)
3.89045144994280e+000	(1.92913004274263e-001dB,-1.70591448874120e+002°)
3.98107170553496e+000	(2.01837972269644e-001dB,-1.70379912554135e+002°)
4.07380277804112e+000	(2.11167581774818e-001dB,-1.70163976061612e+002°)
4.16869383470335e+000	(2.20919428639952e-001dB,-1.69943572535896e+002°)
4.26579518801592e+000	(2.31111805242099e-001dB,-1.69718635869218e+002°)
4.36515832240165e+000	(2.41763721842294e-001dB,-1.69489100862239e+002°)
4.46683592150962e+000	(2.52894927993875e-001dB,-1.69254903390856e+002°)
4.57088189614874e+000	(2.64525934005726e-001dB,-1.69015980583149e+002°)
4.67735141287197e+000	(2.76678032300156e-001dB,-1.68772271009032e+002°)
4.78630092322637e+000	(2.89373318681658e-001dB,-1.68523714880954e+002°)
4.89778819368445e+000	(3.02634713319276e-001dB,-1.68270254268546e+002°)
5.01187233627271e+000	(3.16485981574532e-001dB,-1.68011833322988e+002°)
5.12861383991364e+000	(3.30951754229493e-001dB,-1.67748398518761e+002°)
5.24807460249771e+000	(3.46057547381660e-001dB,-1.67479898905439e+002°)
5.37031796370252e+000	(3.61829781645913e-001dB,-1.67206286375041e+002°)
5.49540873857623e+000	(3.78295800569183e-001dB,-1.66927515944525e+002°)
5.62341325190348e+000	(3.95483888280756e-001dB,-1.66643546050910e+002°)
5.75439937337156e+000	(4.13423286044237e-001dB,-1.66354338862990e+002°)
5.88843655355588e+000	(4.32144207696513e-001dB,-1.66059860607366e+002°)
6.02559586074356e+000	(4.51677853781896e-001dB,-1.65760081909733e+002°)
6.16595001861481e+000	(4.72056424155858e-001dB,-1.65454978152533e+002°)
6.30957344480192e+000	(4.93313129087579e-001dB,-1.65144529845773e+002°)
6.45654229034654e+000	(5.15482198421196e-001dB,-1.64828723015379e+002°)
6.60693448007594e+000	(5.38598888845300e-001dB,-1.64507549605175e+002°)
6.76082975391980e+000	(5.62699488795024e-001dB,-1.64181007896770e+002°)
6.91830970918935e+000	(5.87821321397665e-001dB,-1.63849102938036e+002°)
7.07945784384136e+000	(6.14002744317948e-001dB,-1.63511846993952e+002°)
7.24435960074988e+000	(6.41283147394533e-001dB,-1.63169260003321e+002°)
7.41310241300916e+000	(6.69702946935230e-001dB,-1.62821370054387e+002°)
7.58577575029182e+000	(6.99303577113296e-001dB,-1.62468213869515e+002°)
7.76247116628690e+000	(7.30127477956581e-001dB,-1.62109837302616e+002°)
7.94328234724279e+000	(7.62218079908722e-001dB,-1.61746295846152e+002°)
8.12830516164097e+000	(7.95619784722213e-001dB,-1.61377655147547e+002°)
8.31763771102669e+000	(8.30377942428368e-001dB,-1.61003991534813e+002°)
8.51138038202374e+000	(8.66538824440876e-001dB,-1.60625392547507e+002°)
8.70963589956078e+000	(9.04149592715251e-001dB,-1.60241957471146e+002°)
8.91250938133743e+000	(9.43258264397069e-001dB,-1.59853797878654e+002°)
9.12010839355907e+000	(9.83913672344715e-001dB,-1.59461038171561e+002°)
9.33254300796988e+000	(1.02616542151679e+000dB,-1.59063816118942e+002°)
9.54992586021433e+000	(1.07006384057460e+000dB,-1.58662283398706e+002°)
9.77237220955808e+000	(1.11565992955166e+000dB,-1.58256606130298e+002°)
9.99999999999997e+000	(1.16300530277279e+000dB,-1.57846965405655e+002°)
1.02329299228075e+001	(1.21215212809919e+000dB,-1.57433557806477e+002°)
1.04712854805090e+001	(1.26315306134309e+000dB,-1.57016595918195e+002°)
1.07151930523760e+001	(1.31606117730114e+000dB,-1.56596308826302e+002°)
1.09647819614318e+001	(1.37092989687358e+000dB,-1.56172942600428e+002°)
1.12201845430196e+001	(1.42781291038164e+000dB,-1.55746760765349e+002°)
1.14815362149688e+001	(1.48676409795544e+000dB,-1.55318044752316e+002°)
1.17489755493953e+001	(1.54783744708790e+000dB,-1.54887094331824e+002°)
1.20226443461741e+001	(1.61108696741262e+000dB,-1.54454228029342e+002°)
1.23026877081238e+001	(1.67656660367695e+000dB,-1.54019783518925e+002°)
1.25892541179416e+001	(1.74433014683555e+000dB,-1.53584117998721e+002°)
1.28824955169313e+001	(1.81443114424362e+000dB,-1.53147608544827e+002°)
1.31825673855640e+001	(1.88692280903306e+000dB,-1.52710652447538e+002°)
1.34896288259165e+001	(1.96185792978754e+000dB,-1.52273667527238e+002°)
1.38038426460288e+001	(2.03928878002348e+000dB,-1.51837092439028e+002°)
1.41253754462275e+001	(2.11926702941507e+000dB,-1.51401386959324e+002°)
1.44543977074592e+001	(2.20184365635848e+000dB,-1.50967032264422e+002°)
1.47910838816820e+001	(2.28706886233838e+000dB,-1.50534531205248e+002°)
1.51356124843620e+001	(2.37499198929484e+000dB,-1.50104408578953e+002°)
1.54881661891248e+001	(2.46566143972248e+000dB,-1.49677211407615e+002°)
1.58489319246111e+001	(2.55912460057869e+000dB,-1.49253509226797e+002°)
1.62181009735892e+001	(2.65542777017895e+000dB,-1.48833894397800e+002°)
1.65958690743755e+001	(2.75461608974678e+000dB,-1.48418982444266e+002°)
1.69824365246174e+001	(2.85673347836497e+000dB,-1.48009412429914e+002°)
1.73780082874937e+001	(2.96182257187715e+000dB,-1.47605847384571e+002°)
1.77827941003892e+001	(3.06992466527411e+000dB,-1.47208974791200e+002°)
1.81970085860998e+001	(3.18107965836492e+000dB,-1.46819507145382e+002°)
1.86208713666286e+001	(3.29532600319723e+000dB,-1.46438182604486e+002°)
1.90546071796324e+001	(3.41270065424001e+000dB,-1.46065765732790e+002°)
1.94984459975804e+001	(3.53323901658956e+000dB,-1.45703048372416e+002°)
1.99526231496887e+001	(3.65697489524097e+000dB,-1.45350850637692e+002°)
2.04173794466952e+001	(3.78394043833824e+000dB,-1.45010022070137e+002°)
2.08929613085403e+001	(3.91416607714958e+000dB,-1.44681442952586e+002°)
2.13796208950222e+001	(4.04768045559894e+000dB,-1.44366025816869e+002°)
2.18776162394954e+001	(4.18451034863395e+000dB,-1.44064717154365e+002°)
2.23872113856833e+001	(4.32468056485549e+000dB,-1.43778499351345e+002°)
2.29086765276776e+001	(4.46821382797869e+000dB,-1.43508392870903e+002°)
2.34422881531991e+001	(4.61513063314718e+000dB,-1.43255458696861e+002°)
2.39883291901948e+001	(4.76544907092592e+000dB,-1.43020801061658e+002°)
2.45470891568502e+001	(4.91918461227599e+000dB,-1.42805570475248e+002°)
2.51188643150957e+001	(5.07634984628706e+000dB,-1.42610967072129e+002°)
2.57039578276885e+001	(5.23695416147303e+000dB,-1.42438244291184e+002°)
2.63026799189537e+001	(5.40100335899143e+000dB,-1.42288712902275e+002°)
2.69153480392690e+001	(5.56849918782908e+000dB,-1.42163745383646e+002°)
2.75422870333815e+001	(5.73943878531520e+000dB,-1.42064780658519e+002°)
2.81838293126444e+001	(5.91381400856054e+000dB,-1.41993329183955e+002°)
2.88403150312659e+001	(6.09161063912904e+000dB,-1.41950978378850e+002°)
2.95120922666637e+001	(6.27280743926679e+000dB,-1.41939398367804e+002°)
3.01995172040200e+001	(6.45737503868416e+000dB,-1.41960347998081e+002°)
3.09029543251358e+001	(6.64527462421414e+000dB,-1.42015681071731e+002°)
3.16227766016837e+001	(6.83645640470830e+000dB,-1.42107352706069e+002°)
3.23593656929627e+001	(7.03085781882810e+000dB,-1.42237425705647e+002°)
3.31131121482590e+001	(7.22840145199499e+000dB,-1.42408076788120e+002°)
3.38844156139201e+001	(7.42899262248245e+000dB,-1.42621602457973e+002°)
3.46736850452530e+001	(7.63251659873659e+000dB,-1.42880424258955e+002°)
3.54813389233574e+001	(7.83883540343205e+000dB,-1.43187093062132e+002°)
3.63078054770100e+001	(8.04778416420267e+000dB,-1.43544291955143e+002°)
3.71535229097171e+001	(8.25916696732042e+000dB,-1.43954837188583e+002°)
3.80189396320559e+001	(8.47275218021597e+000dB,-1.44421676508366e+002°)
3.89045144994279e+001	(8.68826721244803e+000dB,-1.44947884052050e+002°)
3.98107170553495e+001	(8.90539270038253e+000dB,-1.45536650817528e+002°)
4.07380277804111e+001	(9.12375612498450e+000dB,-1.46191269530918e+002°)
4.16869383470333e+001	(9.34292489699699e+000dB,-1.46915112537356e+002°)
4.26579518801591e+001	(9.56239899322608e+000dB,-1.47711601152125e+002°)
4.36515832240164e+001	(9.78160327836808e+000dB,-1.48584164724853e+002°)
4.46683592150961e+001	(9.99987972868491e+000dB,-1.49536187557119e+002°)
4.57088189614873e+001	(1.02164798620203e+001dB,-1.50570941769203e+002°)
4.67735141287196e+001	(1.04305577949490e+001dB,-1.51691504326330e+002°)
4.78630092322636e+001	(1.06411644778324e+001dB,-1.52900656754915e+002°)
4.89778819368444e+001	(1.08472437982220e+001dB,-1.54200766681483e+002°)
5.01187233627270e+001	(1.10476313906872e+001dB,-1.55593651331054e+002°)
5.12861383991362e+001	(1.12410571053745e+001dB,-1.57080424520482e+002°)
5.24807460249770e+001	(1.14261521734081e+001dB,-1.58661330629665e+002°)
5.37031796370250e+001	(1.16014620978430e+001dB,-1.60335571391342e+002°)
5.49540873857622e+001	(1.17654661809403e+001dB,-1.62101134092607e+002°)
5.62341325190346e+001	(1.19166043105815e+001dB,-1.63954632570147e+002°)
5.75439937337154e+001	(1.20533111681270e+001dB,-1.65891174936615e+002°)
5.88843655355586e+001	(1.21740573567135e+001dB,-1.67904273611537e+002°)
6.02559586074355e+001	(1.22773961365403e+001dB,-1.69985813429605e+002°)
6.16595001861479e+001	(1.23620135678855e+001dB,-1.72126091772920e+002°)
6.30957344480190e+001	(1.24267790292496e+001dB,-1.74313940430665e+002°)
6.45654229034652e+001	(1.24707924694100e+001dB,-1.76536932385717e+002°)
6.60693448007593e+001	(1.24934245155463e+001dB,-1.78781668400617e+002°)
6.76082975391978e+001	(1.24943458300885e+001dB,1.78965870566676e+002°)
6.91830970918933e+001	(1.24735429021788e+001dB,1.76719927120090e+002°)
7.07945784384134e+001	(1.24313187013758e+001dB,1.74494555043351e+002°)
7.24435960074986e+001	(1.23682781288991e+001dB,1.72303220564155e+002°)
7.41310241300914e+001	(1.22852997162507e+001dB,1.70158445270580e+002°)
7.58577575029180e+001	(1.21834962956616e+001dB,1.68071513272617e+002°)
7.76247116628688e+001	(1.20641682040763e+001dB,1.66052257338920e+002°)
7.94328234724277e+001	(1.19287528938842e+001dB,1.64108929846782e+002°)
8.12830516164095e+001	(1.17787746302070e+001dB,1.62248156025577e+002°)
8.31763771102667e+001	(1.16157973687564e+001dB,1.60474960240989e+002°)
8.51138038202372e+001	(1.14413830892285e+001dB,1.58792851642067e+002°)
8.70963589956076e+001	(1.12570569712226e+001dB,1.57203953468051e+002°)
8.91250938133741e+001	(1.10642799761144e+001dB,1.55709160356962e+002°)
9.12010839355905e+001	(1.08644287241973e+001dB,1.54308309540365e+002°)
9.33254300796986e+001	(1.06587820735029e+001dB,1.53000354309144e+002°)
9.54992586021431e+001	(1.04485135083391e+001dB,1.51783530910510e+002°)
9.77237220955805e+001	(1.02346883128419e+001dB,1.50655512826752e+002°)
9.99999999999995e+001	(1.00182644904681e+001dB,1.49613548759180e+002°)
1.02329299228075e+002	(9.80009646457828e+000dB,1.48654582637182e+002°)
1.04712854805089e+002	(9.58094071448931e+000dB,1.47775355424282e+002°)
1.07151930523760e+002	(9.36146264154388e+000dB,1.46972489505412e+002°)
1.09647819614318e+002	(9.14224410416370e+000dB,1.46242557099613e+002°)
1.12201845430196e+002	(8.92379118997015e+000dB,1.45582134456001e+002°)
1.14815362149688e+002	(8.70654191132776e+000dB,1.44987843748322e+002°)
1.17489755493952e+002	(8.49087360269170e+000dB,1.44456384526037e+002°)
1.20226443461741e+002	(8.27710987655145e+000dB,1.43984556481521e+002°)
1.23026877081237e+002	(8.06552705378047e+000dB,1.43569275120326e+002°)
1.25892541179416e+002	(7.85636002685595e+000dB,1.43207581717475e+002°)
1.28824955169313e+002	(7.64980754720614e+000dB,1.42896648754605e+002°)
1.31825673855640e+002	(7.44603695022992e+000dB,1.42633781846726e+002°)
1.34896288259165e+002	(7.24518834449278e+000dB,1.42416418987348e+002°)
1.38038426460288e+002	(7.04737830231713e+000dB,1.42242127802294e+002°)
1.41253754462275e+002	(6.85270309180758e+000dB,1.42108601360865e+002°)
1.44543977074592e+002	(6.66124149357979e+000dB,1.42013652991630e+002°)
1.47910838816820e+002	(6.47305724357104e+000dB,1.41955210448830e+002°)
1.51356124843620e+002	(6.28820114332526e+000dB,1.41931309708095e+002°)
1.54881661891247e+002	(6.10671287520204e+000dB,1.41940088599698e+002°)
1.58489319246110e+002	(5.92862255790982e+000dB,1.41979780441637e+002°)
1.62181009735892e+002	(5.75395207463074e+000dB,1.42048707793621e+002°)
1.65958690743755e+002	(5.58271620242938e+000dB,1.42145276418438e+002°)
1.69824365246173e+002	(5.41492356884952e+000dB,1.42267969512630e+002°)
1.73780082874936e+002	(5.25057745953101e+000dB,1.42415342251190e+002°)
1.77827941003891e+002	(5.08967649638344e+000dB,1.42586016668191e+002°)
1.81970085860997e+002	(4.93221520556291e+000dB,1.42778676891687e+002°)
1.86208713666286e+002	(4.77818449025851e+000dB,1.42992064733424e+002°)
1.90546071796323e+002	(4.62757202322063e+000dB,1.43224975634096e+002°)
1.94984459975803e+002	(4.48036257084714e+000dB,1.43476254954096e+002°)
1.99526231496887e+002	(4.33653825981787e+000dB,1.43744794598539e+002°)
2.04173794466952e+002	(4.19607879582874e+000dB,1.44029529962084e+002°)
2.08929613085403e+002	(4.05896164245466e+000dB,1.44329437176000e+002°)
2.13796208950222e+002	(3.92516216765543e+000dB,1.44643530640433e+002°)
2.18776162394954e+002	(3.79465376378617e+000dB,1.44970860821705e+002°)
2.23872113856832e+002	(3.66740794677004e+000dB,1.45310512296108e+002°)
2.29086765276776e+002	(3.54339443904384e+000dB,1.45661602020554e+002°)
2.34422881531991e+002	(3.42258124015862e+000dB,1.46023277810446e+002°)
2.39883291901947e+002	(3.30493468863574e+000dB,1.46394717006329e+002°)
2.45470891568501e+002	(3.19041951766029e+000dB,1.46775125309993e+002°)
2.51188643150956e+002	(3.07899890733803e+000dB,1.47163735773039e+002°)
2.57039578276885e+002	(2.97063453534934e+000dB,1.47559807920259e+002°)
2.63026799189536e+002	(2.86528662748793e+000dB,1.47962626991139e+002°)
2.69153480392690e+002	(2.76291400970849e+000dB,1.48371503284792e+002°)
2.75422870333815e+002	(2.66347416233598e+000dB,1.48785771592833e+002°)
2.81838293126443e+002	(2.56692327730443e+000dB,1.49204790706835e+002°)
2.88403150312659e+002	(2.47321631894087e+000dB,1.49627942987676e+002°)
2.95120922666637e+002	(2.38230708851421e+000dB,1.50054633984817e+002°)
3.01995172040200e+002	(2.29414829274224e+000dB,1.50484292094919e+002°)
3.09029543251357e+002	(2.20869161613606e+000dB,1.50916368249807e+002°)
3.16227766016836e+002	(2.12588779700999e+000dB,1.51350335624969e+002°)
3.23593656929626e+002	(2.04568670700942e+000dB,1.51785689361012e+002°)
3.31131121482589e+002	(1.96803743364853e+000dB,1.52221946290851e+002°)
3.38844156139200e+002	(1.89288836547880e+000dB,1.52658644666787e+002°)
3.46736850452529e+002	(1.82018727941511e+000dB,1.53095343882365e+002°)
3.54813389233573e+002	(1.74988142969254e+000dB,1.53531624184769e+002°)
3.63078054770099e+002	(1.68191763791886e+000dB,1.53967086374293e+002°)
3.71535229097170e+002	(1.61624238361760e+000dB,1.54401351488088e+002°)
3.80189396320558e+002	(1.55280189477508e+000dB,1.54834060466286e+002°)
3.89045144994278e+002	(1.49154223783751e+000dB,1.55264873799098e+002°)
3.98107170553494e+002	(1.43240940659301e+000dB,1.55693471154019e+002°)
4.07380277804110e+002	(1.37534940947868e+000dB,1.56119550982917e+002°)
4.16869383470332e+002	(1.32030835486448e+000dB,1.56542830109227e+002°)
4.26579518801589e+002	(1.26723253384894e+000dB,1.56963043295782e+002°)
4.36515832240163e+002	(1.21606850022258e+000dB,1.57379942794281e+002°)
4.46683592150960e+002	(1.16676314719620e+000dB,1.57793297877544e+002°)
4.57088189614872e+002	(1.11926378069788e+000dB,1.58202894356194e+002°)
4.67735141287195e+002	(1.07351818887406e+000dB,1.58608534081251e+002°)
4.78630092322635e+002	(1.02947470767003e+000dB,1.59010034434596e+002°)
4.89778819368443e+002	(9.87082282277039e-001dB,1.59407227809137e+002°)
5.01187233627268e+002	(9.46290524369637e-001dB,1.59799961080731e+002°)
5.12861383991361e+002	(9.07049764997496e-001dB,1.60188095073782e+002°)
5.24807460249769e+002	(8.69311103133601e-001dB,1.60571504022604e+002°)
5.37031796370249e+002	(8.33026449866118e-001dB,1.60950075030486e+002°)
5.49540873857620e+002	(7.98148568228573e-001dB,1.61323707528365e+002°)
5.62341325190345e+002	(7.64631108766688e-001dB,1.61692312734988e+002°)
5.75439937337152e+002	(7.32428640885167e-001dB,1.62055813120285e+002°)
5.88843655355584e+002	(7.01496680111364e-001dB,1.62414141873631e+002°)
