Freq.	V(cascada)
2.00000000000000e+001	(3.28846888843507e+000dB,-1.43820547493042e+002°)
2.00461047615580e+001	(3.30014742550226e+000dB,-1.43776863183502e+002°)
2.00923158055679e+001	(3.31185800308442e+000dB,-1.43733259519054e+002°)
2.01386333770361e+001	(3.32360065828084e+000dB,-1.43689737315627e+002°)
2.01850577215337e+001	(3.33537542799270e+000dB,-1.43646297392401e+002°)
2.02315890851980e+001	(3.34718234891911e+000dB,-1.43602940571793e+002°)
2.02782277147336e+001	(3.35902145755316e+000dB,-1.43559667679462e+002°)
2.03249738574139e+001	(3.37089279018093e+000dB,-1.43516479544311e+002°)
2.03718277610823e+001	(3.38279638288569e+000dB,-1.43473376998554e+002°)
2.04187896741536e+001	(3.39473227153925e+000dB,-1.43430360877668e+002°)
2.04658598456151e+001	(3.40670049180626e+000dB,-1.43387432020436e+002°)
2.05130385250281e+001	(3.41870107913925e+000dB,-1.43344591268956e+002°)
2.05603259625295e+001	(3.43073406877659e+000dB,-1.43301839468650e+002°)
2.06077224088323e+001	(3.44279949574789e+000dB,-1.43259177468302e+002°)
2.06552281152279e+001	(3.45489739486329e+000dB,-1.43216606120021e+002°)
2.07028433335869e+001	(3.46702780071577e+000dB,-1.43174126279304e+002°)
2.07505683163602e+001	(3.47919074768400e+000dB,-1.43131738805025e+002°)
2.07984033165812e+001	(3.49138626992704e+000dB,-1.43089444559472e+002°)
2.08463485878661e+001	(3.50361440137890e+000dB,-1.43047244408321e+002°)
2.08944043844160e+001	(3.51587517575609e+000dB,-1.43005139220690e+002°)
2.09425709610180e+001	(3.52816862654621e+000dB,-1.42963129869135e+002°)
2.09908485730464e+001	(3.54049478701668e+000dB,-1.42921217229668e+002°)
2.10392374764644e+001	(3.55285369020375e+000dB,-1.42879402181775e+002°)
2.10877379278252e+001	(3.56524536891722e+000dB,-1.42837685608423e+002°)
2.11363501842731e+001	(3.57766985573621e+000dB,-1.42796068396103e+002°)
2.11850745035458e+001	(3.59012718301115e+000dB,-1.42754551434796e+002°)
2.12339111439745e+001	(3.60261738285190e+000dB,-1.42713135618028e+002°)
2.12828603644863e+001	(3.61514048713984e+000dB,-1.42671821842877e+002°)
2.13319224246051e+001	(3.62769652751630e+000dB,-1.42630611009987e+002°)
2.13810975844531e+001	(3.64028553538790e+000dB,-1.42589504023588e+002°)
2.14303861047521e+001	(3.65290754191837e+000dB,-1.42548501791501e+002°)
2.14797882468249e+001	(3.66556257803222e+000dB,-1.42507605225175e+002°)
2.15293042725967e+001	(3.67825067440519e+000dB,-1.42466815239663e+002°)
2.15789344445965e+001	(3.69097186147463e+000dB,-1.42426132753711e+002°)
2.16286790259587e+001	(3.70372616943013e+000dB,-1.42385558689706e+002°)
2.16785382804240e+001	(3.71651362820730e+000dB,-1.42345093973710e+002°)
2.17285124723413e+001	(3.72933426749713e+000dB,-1.42304739535515e+002°)
2.17786018666686e+001	(3.74218811673304e+000dB,-1.42264496308602e+002°)
2.18288067289751e+001	(3.75507520510039e+000dB,-1.42224365230221e+002°)
2.18791273254418e+001	(3.76799556152277e+000dB,-1.42184347241353e+002°)
2.19295639228637e+001	(3.78094921466776e+000dB,-1.42144443286753e+002°)
2.19801167886504e+001	(3.79393619294635e+000dB,-1.42104654314999e+002°)
2.20307861908283e+001	(3.80695652450284e+000dB,-1.42064981278448e+002°)
2.20815723980414e+001	(3.82001023721938e+000dB,-1.42025425133300e+002°)
2.21324756795533e+001	(3.83309735871598e+000dB,-1.41985986839614e+002°)
2.21834963052480e+001	(3.84621791633481e+000dB,-1.41946667361292e+002°)
2.22346345456318e+001	(3.85937193716116e+000dB,-1.41907467666159e+002°)
2.22858906718345e+001	(3.87255944799841e+000dB,-1.41868388725927e+002°)
2.23372649556112e+001	(3.88578047538036e+000dB,-1.41829431516235e+002°)
2.23887576693430e+001	(3.89903504556168e+000dB,-1.41790597016680e+002°)
2.24403690860392e+001	(3.91232318452098e+000dB,-1.41751886210826e+002°)
2.24920994793385e+001	(3.92564491795556e+000dB,-1.41713300086227e+002°)
2.25439491235101e+001	(3.93900027127779e+000dB,-1.41674839634443e+002°)
2.25959182934559e+001	(3.95238926961825e+000dB,-1.41636505851071e+002°)
2.26480072647111e+001	(3.96581193781629e+000dB,-1.41598299735756e+002°)
2.27002163134462e+001	(3.97926830042489e+000dB,-1.41560222292227e+002°)
2.27525457164686e+001	(3.99275838170236e+000dB,-1.41522274528298e+002°)
2.28049957512233e+001	(4.00628220561073e+000dB,-1.41484457455901e+002°)
2.28575666957954e+001	(4.01983979582050e+000dB,-1.41446772091116e+002°)
2.29102588289106e+001	(4.03343117569707e+000dB,-1.41409219454182e+002°)
2.29630724299376e+001	(4.04705636830375e+000dB,-1.41371800569510e+002°)
2.30160077788886e+001	(4.06071539640661e+000dB,-1.41334516465755e+002°)
2.30690651564218e+001	(4.07440828245334e+000dB,-1.41297368175748e+002°)
2.31222448438419e+001	(4.08813504859100e+000dB,-1.41260356736635e+002°)
2.31755471231024e+001	(4.10189571664883e+000dB,-1.41223483189785e+002°)
2.32289722768068e+001	(4.11569030814206e+000dB,-1.41186748580892e+002°)
2.32825205882097e+001	(4.12951884426813e+000dB,-1.41150153959982e+002°)
2.33361923412192e+001	(4.14338134590498e+000dB,-1.41113700381423e+002°)
2.33899878203973e+001	(4.15727783360322e+000dB,-1.41077388903944e+002°)
2.34439073109625e+001	(4.17120832759066e+000dB,-1.41041220590686e+002°)
2.34979510987905e+001	(4.18517284776424e+000dB,-1.41005196509214e+002°)
2.35521194704161e+001	(4.19917141368859e+000dB,-1.40969317731529e+002°)
2.36064127130345e+001	(4.21320404459169e+000dB,-1.40933585334111e+002°)
2.36608311145032e+001	(4.22727075936389e+000dB,-1.40898000397940e+002°)
2.37153749633431e+001	(4.24137157655637e+000dB,-1.40862564008518e+002°)
2.37700445487403e+001	(4.25550651437103e+000dB,-1.40827277255895e+002°)
2.38248401605474e+001	(4.26967559066484e+000dB,-1.40792141234704e+002°)
2.38797620892854e+001	(4.28387882294195e+000dB,-1.40757157044165e+002°)
2.39348106261448e+001	(4.29811622835414e+000dB,-1.40722325788146e+002°)
2.39899860629875e+001	(4.31238782369449e+000dB,-1.40687648575163e+002°)
2.40452886923482e+001	(4.32669362539390e+000dB,-1.40653126518416e+002°)
2.41007188074358e+001	(4.34103364951841e+000dB,-1.40618760735808e+002°)
2.41562767021355e+001	(4.35540791176774e+000dB,-1.40584552349994e+002°)
2.42119626710095e+001	(4.36981642746853e+000dB,-1.40550502488378e+002°)
2.42677770092994e+001	(4.38425921157278e+000dB,-1.40516612283183e+002°)
2.43237200129273e+001	(4.39873627865229e+000dB,-1.40482882871430e+002°)
2.43797919784972e+001	(4.41324764289836e+000dB,-1.40449315395006e+002°)
2.44359932032973e+001	(4.42779331811155e+000dB,-1.40415911000666e+002°)
2.44923239853009e+001	(4.44237331770746e+000dB,-1.40382670840083e+002°)
2.45487846231680e+001	(4.45698765470335e+000dB,-1.40349596069870e+002°)
2.46053754162475e+001	(4.47163634172168e+000dB,-1.40316687851606e+002°)
2.46620966645781e+001	(4.48631939097810e+000dB,-1.40283947351856e+002°)
2.47189486688901e+001	(4.50103681428615e+000dB,-1.40251375742231e+002°)
2.47759317306073e+001	(4.51578862304566e+000dB,-1.40218974199384e+002°)
2.48330461518481e+001	(4.53057482824354e+000dB,-1.40186743905064e+002°)
2.48902922354276e+001	(4.54539544044934e+000dB,-1.40154686046148e+002°)
2.49476702848587e+001	(4.56025046980585e+000dB,-1.40122801814646e+002°)
2.50051806043543e+001	(4.57513992602974e+000dB,-1.40091092407755e+002°)
2.50628234988282e+001	(4.59006381840432e+000dB,-1.40059559027890e+002°)
2.51205992738974e+001	(4.60502215577714e+000dB,-1.40028202882707e+002°)
2.51785082358832e+001	(4.62001494655571e+000dB,-1.39997025185142e+002°)
2.52365506918133e+001	(4.63504219869904e+000dB,-1.39966027153435e+002°)
2.52947269494229e+001	(4.65010391971519e+000dB,-1.39935210011169e+002°)
2.53530373171568e+001	(4.66520011665890e+000dB,-1.39904574987299e+002°)
2.54114821041707e+001	(4.68033079611937e+000dB,-1.39874123316190e+002°)
2.54700616203331e+001	(4.69549596422583e+000dB,-1.39843856237648e+002°)
2.55287761762267e+001	(4.71069562663294e+000dB,-1.39813774996946e+002°)
2.55876260831504e+001	(4.72592978852158e+000dB,-1.39783880844873e+002°)
2.56466116531203e+001	(4.74119845458834e+000dB,-1.39754175037747e+002°)
2.57057331988722e+001	(4.75650162904793e+000dB,-1.39724658837482e+002°)
2.57649910338625e+001	(4.77183931561805e+000dB,-1.39695333511570e+002°)
2.58243854722705e+001	(4.78721151752235e+000dB,-1.39666200333176e+002°)
2.58839168289996e+001	(4.80261823748024e+000dB,-1.39637260581128e+002°)
2.59435854196790e+001	(4.81805947770151e+000dB,-1.39608515539967e+002°)
2.60033915606657e+001	(4.83353523988434e+000dB,-1.39579966499995e+002°)
2.60633355690458e+001	(4.84904552520308e+000dB,-1.39551614757285e+002°)
2.61234177626367e+001	(4.86459033430919e+000dB,-1.39523461613749e+002°)
2.61836384599880e+001	(4.88016966731815e+000dB,-1.39495508377130e+002°)
2.62439979803839e+001	(4.89578352381139e+000dB,-1.39467756361084e+002°)
2.63044966438446e+001	(4.91143190282266e+000dB,-1.39440206885189e+002°)
2.63651347711280e+001	(4.92711480283327e+000dB,-1.39412861274975e+002°)
2.64259126837313e+001	(4.94283222177132e+000dB,-1.39385720861995e+002°)
2.64868307038931e+001	(4.95858415699846e+000dB,-1.39358786983840e+002°)
2.65478891545946e+001	(4.97437060530660e+000dB,-1.39332060984160e+002°)
2.66090883595617e+001	(4.99019156290983e+000dB,-1.39305544212740e+002°)
2.66704286432663e+001	(5.00604702544091e+000dB,-1.39279238025501e+002°)
2.67319103309287e+001	(5.02193698793416e+000dB,-1.39253143784548e+002°)
2.67935337485185e+001	(5.03786144483575e+000dB,-1.39227262858248e+002°)
2.68552992227571e+001	(5.05382038997912e+000dB,-1.39201596621197e+002°)
2.69172070811188e+001	(5.06981381658821e+000dB,-1.39176146454314e+002°)
2.69792576518329e+001	(5.08584171726849e+000dB,-1.39150913744849e+002°)
2.70414512638854e+001	(5.10190408399513e+000dB,-1.39125899886454e+002°)
2.71037882470205e+001	(5.11800090811133e+000dB,-1.39101106279184e+002°)
2.71662689317429e+001	(5.13413218031339e+000dB,-1.39076534329560e+002°)
2.72288936493188e+001	(5.15029789065222e+000dB,-1.39052185450609e+002°)
2.72916627317783e+001	(5.16649802851761e+000dB,-1.39028061061889e+002°)
2.73545765119168e+001	(5.18273258263435e+000dB,-1.39004162589546e+002°)
2.74176353232969e+001	(5.19900154104918e+000dB,-1.38980491466331e+002°)
2.74808395002501e+001	(5.21530489112880e+000dB,-1.38957049131672e+002°)
2.75441893778787e+001	(5.23164261955020e+000dB,-1.38933837031694e+002°)
2.76076852920575e+001	(5.24801471228436e+000dB,-1.38910856619240e+002°)
2.76713275794354e+001	(5.26442115459963e+000dB,-1.38888109353965e+002°)
2.77351165774376e+001	(5.28086193104193e+000dB,-1.38865596702326e+002°)
2.77990526242669e+001	(5.29733702543604e+000dB,-1.38843320137657e+002°)
2.78631360589058e+001	(5.31384642086563e+000dB,-1.38821281140180e+002°)
2.79273672211185e+001	(5.33039009967100e+000dB,-1.38799481197069e+002°)
2.79917464514521e+001	(5.34696804343973e+000dB,-1.38777921802487e+002°)
2.80562740912389e+001	(5.36358023299638e+000dB,-1.38756604457631e+002°)
2.81209504825981e+001	(5.38022664838708e+000dB,-1.38735530670745e+002°)
2.81857759684373e+001	(5.39690726887935e+000dB,-1.38714701957203e+002°)
2.82507508924549e+001	(5.41362207294466e+000dB,-1.38694119839529e+002°)
2.83158755991414e+001	(5.43037103825173e+000dB,-1.38673785847437e+002°)
2.83811504337816e+001	(5.44715414165677e+000dB,-1.38653701517879e+002°)
2.84465757424562e+001	(5.46397135919033e+000dB,-1.38633868395089e+002°)
2.85121518720435e+001	(5.48082266604937e+000dB,-1.38614288030627e+002°)
2.85778791702218e+001	(5.49770803658272e+000dB,-1.38594961983389e+002°)
2.86437579854706e+001	(5.51462744428649e+000dB,-1.38575891819715e+002°)
2.87097886670729e+001	(5.53158086178687e+000dB,-1.38557079113369e+002°)
2.87759715651167e+001	(5.54856826083193e+000dB,-1.38538525445608e+002°)
2.88423070304971e+001	(5.56558961228054e+000dB,-1.38520232405228e+002°)
2.89087954149183e+001	(5.58264488608791e+000dB,-1.38502201588589e+002°)
2.89754370708950e+001	(5.59973405129909e+000dB,-1.38484434599690e+002°)
2.90422323517546e+001	(5.61685707602973e+000dB,-1.38466933050164e+002°)
2.91091816116391e+001	(5.63401392746115e+000dB,-1.38449698559359e+002°)
2.91762852055067e+001	(5.65120457182562e+000dB,-1.38432732754376e+002°)
2.92435434891341e+001	(5.66842897439129e+000dB,-1.38416037270094e+002°)
2.93109568191180e+001	(5.68568709945234e+000dB,-1.38399613749225e+002°)
2.93785255528771e+001	(5.70297891031576e+000dB,-1.38383463842356e+002°)
2.94462500486541e+001	(5.72030436928857e+000dB,-1.38367589207987e+002°)
2.95141306655176e+001	(5.73766343766227e+000dB,-1.38351991512570e+002°)
2.95821677633639e+001	(5.75505607570410e+000dB,-1.38336672430570e+002°)
2.96503617029188e+001	(5.77248224264027e+000dB,-1.38321633644487e+002°)
2.97187128457399e+001	(5.78994189664033e+000dB,-1.38306876844909e+002°)
2.97872215542180e+001	(5.80743499480907e+000dB,-1.38292403730542e+002°)
2.98558881915797e+001	(5.82496149316800e+000dB,-1.38278216008281e+002°)
2.99247131218884e+001	(5.84252134663905e+000dB,-1.38264315393201e+002°)
2.99936967100472e+001	(5.86011450903644e+000dB,-1.38250703608658e+002°)
3.00628393218002e+001	(5.87774093304759e+000dB,-1.38237382386290e+002°)
3.01321413237346e+001	(5.89540057021774e+000dB,-1.38224353466065e+002°)
3.02016030832827e+001	(5.91309337093877e+000dB,-1.38211618596346e+002°)
3.02712249687239e+001	(5.93081928442707e+000dB,-1.38199179533893e+002°)
3.03410073491864e+001	(5.94857825871501e+000dB,-1.38187038043934e+002°)
3.04109505946496e+001	(5.96637024063152e+000dB,-1.38175195900203e+002°)
3.04810550759455e+001	(5.98419517578495e+000dB,-1.38163654884962e+002°)
3.05513211647612e+001	(6.00205300855137e+000dB,-1.38152416789068e+002°)
3.06217492336403e+001	(6.01994368205209e+000dB,-1.38141483411983e+002°)
3.06923396559856e+001	(6.03786713814015e+000dB,-1.38130856561834e+002°)
3.07630928060604e+001	(6.05582331738685e+000dB,-1.38120538055454e+002°)
3.08340090589909e+001	(6.07381215905490e+000dB,-1.38110529718404e+002°)
3.09050887907680e+001	(6.09183360109228e+000dB,-1.38100833385038e+002°)
3.09763323782493e+001	(6.10988758010627e+000dB,-1.38091450898506e+002°)
3.10477401991613e+001	(6.12797403134990e+000dB,-1.38082384110832e+002°)
3.11193126321012e+001	(6.14609288869911e+000dB,-1.38073634882907e+002°)
3.11910500565388e+001	(6.16424408464239e+000dB,-1.38065205084578e+002°)
3.12629528528188e+001	(6.18242755025370e+000dB,-1.38057096594637e+002°)
3.13350214021627e+001	(6.20064321518067e+000dB,-1.38049311300897e+002°)
3.14072560866707e+001	(6.21889100761600e+000dB,-1.38041851100191e+002°)
3.14796572893241e+001	(6.23717085429048e+000dB,-1.38034717898425e+002°)
3.15522253939866e+001	(6.25548268044135e+000dB,-1.38027913610635e+002°)
3.16249607854073e+001	(6.27382640980206e+000dB,-1.38021440160983e+002°)
3.16978638492219e+001	(6.29220196457505e+000dB,-1.38015299482813e+002°)
3.17709349719552e+001	(6.31060926541399e+000dB,-1.38009493518674e+002°)
3.18441745410231e+001	(6.32904823140383e+000dB,-1.38004024220368e+002°)
3.19175829447343e+001	(6.34751878003973e+000dB,-1.37998893548967e+002°)
3.19911605722930e+001	(6.36602082720145e+000dB,-1.37994103474849e+002°)
3.20649078138005e+001	(6.38455428713936e+000dB,-1.37989655977731e+002°)
3.21388250602572e+001	(6.40311907244632e+000dB,-1.37985553046705e+002°)
3.22129127035651e+001	(6.42171509403617e+000dB,-1.37981796680248e+002°)
3.22871711365294e+001	(6.44034226112561e+000dB,-1.37978388886271e+002°)
3.23616007528610e+001	(6.45900048120536e+000dB,-1.37975331682136e+002°)
3.24362019471783e+001	(6.47768966002227e+000dB,-1.37972627094688e+002°)
3.25109751150093e+001	(6.49640970155523e+000dB,-1.37970277160292e+002°)
3.25859206527941e+001	(6.51516050798531e+000dB,-1.37968283924813e+002°)
3.26610389578863e+001	(6.53394197968129e+000dB,-1.37966649443707e+002°)
3.27363304285558e+001	(6.55275401517028e+000dB,-1.37965375782000e+002°)
3.28117954639904e+001	(6.57159651111240e+000dB,-1.37964465014326e+002°)
3.28874344642983e+001	(6.59046936227662e+000dB,-1.37963919224927e+002°)
3.29632478305098e+001	(6.60937246151776e+000dB,-1.37963740507714e+002°)
3.30392359645799e+001	(6.62830569974813e+000dB,-1.37963930966250e+002°)
3.31153992693902e+001	(6.64726896591501e+000dB,-1.37964492713794e+002°)
3.31917381487508e+001	(6.66626214697024e+000dB,-1.37965427873301e+002°)
3.32682530074030e+001	(6.68528512784668e+000dB,-1.37966738577438e+002°)
3.33449442510209e+001	(6.70433779143126e+000dB,-1.37968426968622e+002°)
3.34218122862138e+001	(6.72342001853707e+000dB,-1.37970495199005e+002°)
3.34988575205284e+001	(6.74253168787480e+000dB,-1.37972945430506e+002°)
3.35760803624508e+001	(6.76167267602762e+000dB,-1.37975779834808e+002°)
3.36534812214090e+001	(6.78084285742314e+000dB,-1.37979000593389e+002°)
3.37310605077744e+001	(6.80004210430049e+000dB,-1.37982609897509e+002°)
3.38088186328649e+001	(6.81927028668672e+000dB,-1.37986609948224e+002°)
3.38867560089462e+001	(6.83852727236491e+000dB,-1.37991002956404e+002°)
3.39648730492345e+001	(6.85781292684372e+000dB,-1.37995791142711e+002°)
3.40431701678986e+001	(6.87712711333083e+000dB,-1.38000976737634e+002°)
3.41216477800621e+001	(6.89646969270070e+000dB,-1.38006561981464e+002°)
3.42003063018053e+001	(6.91584052346346e+000dB,-1.38012549124304e+002°)
3.42791461501681e+001	(6.93523946173643e+000dB,-1.38018940426078e+002°)
3.43581677431514e+001	(6.95466636120913e+000dB,-1.38025738156500e+002°)
3.44373714997197e+001	(6.97412107311464e+000dB,-1.38032944595095e+002°)
3.45167578398037e+001	(6.99360344619797e+000dB,-1.38040562031177e+002°)
3.45963271843016e+001	(7.01311332667883e+000dB,-1.38048592763836e+002°)
3.46760799550823e+001	(7.03265055822550e+000dB,-1.38057039101944e+002°)
3.47560165749871e+001	(7.05221498191895e+000dB,-1.38065903364133e+002°)
3.48361374678319e+001	(7.07180643621821e+000dB,-1.38075187878775e+002°)
3.49164430584097e+001	(7.09142475692645e+000dB,-1.38084894983960e+002°)
3.49969337724927e+001	(7.11106977715817e+000dB,-1.38095027027500e+002°)
3.50776100368348e+001	(7.13074132730581e+000dB,-1.38105586366881e+002°)
3.51584722791734e+001	(7.15043923500187e+000dB,-1.38116575369258e+002°)
3.52395209282322e+001	(7.17016332508534e+000dB,-1.38127996411419e+002°)
3.53207564137229e+001	(7.18991341956364e+000dB,-1.38139851879755e+002°)
3.54021791663480e+001	(7.20968933758143e+000dB,-1.38152144170236e+002°)
3.54837896178029e+001	(7.22949089537981e+000dB,-1.38164875688380e+002°)
3.55655882007780e+001	(7.24931790625904e+000dB,-1.38178048849206e+002°)
3.56475753489613e+001	(7.26917018054572e+000dB,-1.38191666077207e+002°)
3.57297514970406e+001	(7.28904752555013e+000dB,-1.38205729806288e+002°)
3.58121170807054e+001	(7.30894974553138e+000dB,-1.38220242479762e+002°)
3.58946725366501e+001	(7.32887664165712e+000dB,-1.38235206550252e+002°)
3.59774183025753e+001	(7.34882801196802e+000dB,-1.38250624479696e+002°)
3.60603548171909e+001	(7.36880365133248e+000dB,-1.38266498739243e+002°)
3.61434825202181e+001	(7.38880335141335e+000dB,-1.38282831809233e+002°)
3.62268018523916e+001	(7.40882690062616e+000dB,-1.38299626179136e+002°)
3.63103132554622e+001	(7.42887408409367e+000dB,-1.38316884347457e+002°)
3.63940171721992e+001	(7.44894468361369e+000dB,-1.38334608821718e+002°)
3.64779140463923e+001	(7.46903847761158e+000dB,-1.38352802118360e+002°)
3.65620043228544e+001	(7.48915524110107e+000dB,-1.38371466762674e+002°)
3.66462884474238e+001	(7.50929474564223e+000dB,-1.38390605288746e+002°)
3.67307668669664e+001	(7.52945675929825e+000dB,-1.38410220239353e+002°)
3.68154400293786e+001	(7.54964104659369e+000dB,-1.38430314165888e+002°)
3.69003083835890e+001	(7.56984736847109e+000dB,-1.38450889628291e+002°)
3.69853723795611e+001	(7.59007548224705e+000dB,-1.38471949194940e+002°)
3.70706324682957e+001	(7.61032514156902e+000dB,-1.38493495442568e+002°)
3.71560891018335e+001	(7.63059609637160e+000dB,-1.38515530956166e+002°)
3.72417427332568e+001	(7.65088809283031e+000dB,-1.38538058328872e+002°)
3.73275938166929e+001	(7.67120087331679e+000dB,-1.38561080161878e+002°)
3.74136428073155e+001	(7.69153417635470e+000dB,-1.38584599064320e+002°)
3.74998901613479e+001	(7.71188773657369e+000dB,-1.38608617653156e+002°)
3.75863363360649e+001	(7.73226128466136e+000dB,-1.38633138553051e+002°)
3.76729817897955e+001	(7.75265454732019e+000dB,-1.38658164396261e+002°)
3.77598269819254e+001	(7.77306724721778e+000dB,-1.38683697822505e+002°)
