Freq.	V(n005)/(-I(R1)-I(R2))
2.00000000000000e+001	(6.48057313572675e+001dB,-5.28504343114035e+001°)
2.00461047615580e+001	(6.47902459249166e+001dB,-5.29211662276705e+001°)
2.00923158055679e+001	(6.47747170482160e+001dB,-5.29918302078273e+001°)
2.01386333770361e+001	(6.47591446660315e+001dB,-5.30624252897342e+001°)
2.01850577215337e+001	(6.47435287174157e+001dB,-5.31329505071589e+001°)
2.02315890851980e+001	(6.47278691416214e+001dB,-5.32034048897647e+001°)
2.02782277147336e+001	(6.47121658780981e+001dB,-5.32737874631096e+001°)
2.03249738574139e+001	(6.46964188664960e+001dB,-5.33440972486240e+001°)
2.03718277610823e+001	(6.46806280466591e+001dB,-5.34143332635540e+001°)
2.04187896741536e+001	(6.46647933586407e+001dB,-5.34844945210272e+001°)
2.04658598456151e+001	(6.46489147426930e+001dB,-5.35545800299405e+001°)
2.05130385250281e+001	(6.46329921392817e+001dB,-5.36245887950387e+001°)
2.05603259625295e+001	(6.46170254890670e+001dB,-5.36945198167962e+001°)
2.06077224088323e+001	(6.46010147329332e+001dB,-5.37643720914975e+001°)
2.06552281152279e+001	(6.45849598119684e+001dB,-5.38341446111439e+001°)
2.07028433335869e+001	(6.45688606674703e+001dB,-5.39038363634706e+001°)
2.07505683163602e+001	(6.45527172409608e+001dB,-5.39734463319375e+001°)
2.07984033165812e+001	(6.45365294741709e+001dB,-5.40429734956750e+001°)
2.08463485878661e+001	(6.45202973090562e+001dB,-5.41124168295155e+001°)
2.08944043844160e+001	(6.45040206877879e+001dB,-5.41817753039069e+001°)
2.09425709610180e+001	(6.44876995527640e+001dB,-5.42510478849793e+001°)
2.09908485730464e+001	(6.44713338466071e+001dB,-5.43202335344462e+001°)
2.10392374764644e+001	(6.44549235121643e+001dB,-5.43893312096370e+001°)
2.10877379278252e+001	(6.44384684925129e+001dB,-5.44583398634524e+001°)
2.11363501842731e+001	(6.44219687309645e+001dB,-5.45272584443692e+001°)
2.11850745035458e+001	(6.44054241710586e+001dB,-5.45960858963880e+001°)
2.12339111439745e+001	(6.43888347565698e+001dB,-5.46648211590240e+001°)
2.12828603644863e+001	(6.43722004315159e+001dB,-5.47334631673214e+001°)
2.13319224246051e+001	(6.43555211401489e+001dB,-5.48020108517938e+001°)
2.13810975844531e+001	(6.43387968269611e+001dB,-5.48704631383932e+001°)
2.14303861047521e+001	(6.43220274366983e+001dB,-5.49388189485516e+001°)
2.14797882468249e+001	(6.43052129143425e+001dB,-5.50070771990954e+001°)
2.15293042725967e+001	(6.42883532051252e+001dB,-5.50752368022461e+001°)
2.15789344445965e+001	(6.42714482545354e+001dB,-5.51432966656299e+001°)
2.16286790259587e+001	(6.42544980083100e+001dB,-5.52112556922160e+001°)
2.16785382804240e+001	(6.42375024124404e+001dB,-5.52791127802965e+001°)
2.17285124723413e+001	(6.42204614131773e+001dB,-5.53468668234936e+001°)
2.17786018666686e+001	(6.42033749570333e+001dB,-5.54145167107186e+001°)
2.18288067289751e+001	(6.41862429907823e+001dB,-5.54820613261626e+001°)
2.18791273254418e+001	(6.41690654614633e+001dB,-5.55494995492516e+001°)
2.19295639228637e+001	(6.41518423163826e+001dB,-5.56168302546417e+001°)
2.19801167886504e+001	(6.41345735031176e+001dB,-5.56840523122003e+001°)
2.20307861908283e+001	(6.41172589695196e+001dB,-5.57511645869830e+001°)
2.20815723980414e+001	(6.40998986637070e+001dB,-5.58181659391606e+001°)
2.21324756795533e+001	(6.40824925340902e+001dB,-5.58850552241077e+001°)
2.21834963052480e+001	(6.40650405293504e+001dB,-5.59518312922671e+001°)
2.22346345456318e+001	(6.40475425984522e+001dB,-5.60184929891727e+001°)
2.22858906718345e+001	(6.40299986906535e+001dB,-5.60850391554469e+001°)
2.23372649556112e+001	(6.40124087554947e+001dB,-5.61514686267322e+001°)
2.23887576693430e+001	(6.39947727428078e+001dB,-5.62177802336996e+001°)
2.24403690860392e+001	(6.39770906027232e+001dB,-5.62839728020149e+001°)
2.24920994793385e+001	(6.39593622856637e+001dB,-5.63500451523016e+001°)
2.25439491235101e+001	(6.39415877423603e+001dB,-5.64159961001493e+001°)
2.25959182934559e+001	(6.39237669238372e+001dB,-5.64818244560435e+001°)
2.26480072647111e+001	(6.39058997814344e+001dB,-5.65475290253882e+001°)
2.27002163134462e+001	(6.38879862667960e+001dB,-5.66131086084495e+001°)
2.27525457164686e+001	(6.38700263318766e+001dB,-5.66785620003205e+001°)
2.28049957512233e+001	(6.38520199289569e+001dB,-5.67438879909540e+001°)
2.28575666957954e+001	(6.38339670106192e+001dB,-5.68090853650459e+001°)
2.29102588289106e+001	(6.38158675297844e+001dB,-5.68741529020978e+001°)
2.29630724299376e+001	(6.37977214396869e+001dB,-5.69390893763345e+001°)
2.30160077788886e+001	(6.37795286938993e+001dB,-5.70038935567181e+001°)
2.30690651564218e+001	(6.37612892463156e+001dB,-5.70685642068582e+001°)
2.31222448438419e+001	(6.37430030511740e+001dB,-5.71331000850664e+001°)
2.31755471231024e+001	(6.37246700630452e+001dB,-5.71974999442662e+001°)
2.32289722768068e+001	(6.37062902368462e+001dB,-5.72617625319963e+001°)
2.32825205882097e+001	(6.36878635278390e+001dB,-5.73258865903829e+001°)
2.33361923412192e+001	(6.36693898916311e+001dB,-5.73898708560842e+001°)
2.33899878203973e+001	(6.36508692841841e+001dB,-5.74537140602888e+001°)
2.34439073109625e+001	(6.36323016618224e+001dB,-5.75174149287043e+001°)
2.34979510987905e+001	(6.36136869812212e+001dB,-5.75809721814713e+001°)
2.35521194704161e+001	(6.35950251994248e+001dB,-5.76443845332015e+001°)
2.36064127130345e+001	(6.35763162738458e+001dB,-5.77076506928968e+001°)
2.36608311145032e+001	(6.35575601622648e+001dB,-5.77707693639445e+001°)
2.37153749633431e+001	(6.35387568228430e+001dB,-5.78337392440995e+001°)
2.37700445487403e+001	(6.35199062141164e+001dB,-5.78965590254186e+001°)
2.38248401605474e+001	(6.35010082950088e+001dB,-5.79592273942661e+001°)
2.38797620892854e+001	(6.34820630248281e+001dB,-5.80217430312699e+001°)
2.39348106261448e+001	(6.34630703632748e+001dB,-5.80841046112856e+001°)
2.39899860629875e+001	(6.34440302704487e+001dB,-5.81463108033790e+001°)
2.40452886923482e+001	(6.34249427068451e+001dB,-5.82083602707865e+001°)
2.41007188074358e+001	(6.34058076333677e+001dB,-5.82702516708891e+001°)
2.41562767021355e+001	(6.33866250113268e+001dB,-5.83319836551743e+001°)
2.42119626710095e+001	(6.33673948024472e+001dB,-5.83935548692214e+001°)
2.42677770092994e+001	(6.33481169688728e+001dB,-5.84549639526494e+001°)
2.43237200129273e+001	(6.33287914731677e+001dB,-5.85162095391055e+001°)
2.43797919784972e+001	(6.33094182783263e+001dB,-5.85772902562131e+001°)
2.44359932032973e+001	(6.32899973477695e+001dB,-5.86382047255527e+001°)
2.44923239853009e+001	(6.32705286453640e+001dB,-5.86989515626436e+001°)
2.45487846231680e+001	(6.32510121354065e+001dB,-5.87595293768645e+001°)
2.46053754162475e+001	(6.32314477826489e+001dB,-5.88199367714784e+001°)
2.46620966645781e+001	(6.32118355522924e+001dB,-5.88801723435635e+001°)
2.47189486688901e+001	(6.31921754099921e+001dB,-5.89402346839882e+001°)
2.47759317306073e+001	(6.31724673218654e+001dB,-5.90001223773779e+001°)
2.48330461518481e+001	(6.31527112545003e+001dB,-5.90598340020989e+001°)
2.48902922354276e+001	(6.31329071749516e+001dB,-5.91193681301871e+001°)
2.49476702848587e+001	(6.31130550507561e+001dB,-5.91787233273620e+001°)
2.50051806043543e+001	(6.30931548499260e+001dB,-5.92378981529318e+001°)
2.50628234988282e+001	(6.30732065409709e+001dB,-5.92968911598305e+001°)
2.51205992738974e+001	(6.30532100928854e+001dB,-5.93557008945190e+001°)
2.51785082358832e+001	(6.30331654751725e+001dB,-5.94143258970078e+001°)
2.52365506918133e+001	(6.30130726578331e+001dB,-5.94727647007708e+001°)
2.52947269494229e+001	(6.29929316113809e+001dB,-5.95310158327330e+001°)
2.53530373171568e+001	(6.29727423068461e+001dB,-5.95890778132431e+001°)
2.54114821041707e+001	(6.29525047157826e+001dB,-5.96469491560193e+001°)
2.54700616203331e+001	(6.29322188102754e+001dB,-5.97046283681516e+001°)
2.55287761762267e+001	(6.29118845629388e+001dB,-5.97621139500051e+001°)
2.55876260831504e+001	(6.28915019469313e+001dB,-5.98194043952296e+001°)
2.56466116531203e+001	(6.28710709359592e+001dB,-5.98764981907151e+001°)
2.57057331988722e+001	(6.28505915042798e+001dB,-5.99333938165448e+001°)
2.57649910338625e+001	(6.28300636267177e+001dB,-5.99900897459791e+001°)
2.58243854722705e+001	(6.28094872786552e+001dB,-6.00465844453810e+001°)
2.58839168289996e+001	(6.27888624360534e+001dB,-6.01028763742113e+001°)
2.59435854196790e+001	(6.27681890754523e+001dB,-6.01589639850007e+001°)
2.60033915606657e+001	(6.27474671739776e+001dB,-6.02148457232567e+001°)
2.60633355690458e+001	(6.27266967093536e+001dB,-6.02705200275038e+001°)
2.61234177626367e+001	(6.27058776599018e+001dB,-6.03259853291820e+001°)
2.61836384599880e+001	(6.26850100045507e+001dB,-6.03812400526247e+001°)
2.62439979803839e+001	(6.26640937228480e+001dB,-6.04362826150546e+001°)
2.63044966438446e+001	(6.26431287949624e+001dB,-6.04911114264895e+001°)
2.63651347711280e+001	(6.26221152016945e+001dB,-6.05457248897638e+001°)
2.64259126837313e+001	(6.26010529244792e+001dB,-6.06001214004240e+001°)
2.64868307038931e+001	(6.25799419454003e+001dB,-6.06542993467541e+001°)
2.65478891545946e+001	(6.25587822471907e+001dB,-6.07082571096756e+001°)
2.66090883595617e+001	(6.25375738132513e+001dB,-6.07619930627836e+001°)
2.66704286432663e+001	(6.25163166276449e+001dB,-6.08155055722231e+001°)
2.67319103309287e+001	(6.24950106751165e+001dB,-6.08687929967108e+001°)
2.67935337485185e+001	(6.24736559410927e+001dB,-6.09218536874636e+001°)
2.68552992227571e+001	(6.24522524116966e+001dB,-6.09746859881718e+001°)
2.69172070811188e+001	(6.24308000737538e+001dB,-6.10272882349678e+001°)
2.69792576518329e+001	(6.24092989147983e+001dB,-6.10796587563590e+001°)
2.70414512638854e+001	(6.23877489230831e+001dB,-6.11317958732114e+001°)
2.71037882470205e+001	(6.23661500875938e+001dB,-6.11836978987027e+001°)
2.71662689317429e+001	(6.23445023980491e+001dB,-6.12353631382794e+001°)
2.72288936493188e+001	(6.23228058449132e+001dB,-6.12867898896021e+001°)
2.72916627317783e+001	(6.23010604194101e+001dB,-6.13379764425480e+001°)
2.73545765119168e+001	(6.22792661135239e+001dB,-6.13889210791086e+001°)
2.74176353232969e+001	(6.22574229200148e+001dB,-6.14396220734096e+001°)
2.74808395002501e+001	(6.22355308324261e+001dB,-6.14900776916243e+001°)
2.75441893778787e+001	(6.22135898450956e+001dB,-6.15402861919545e+001°)
2.76076852920575e+001	(6.21915999531626e+001dB,-6.15902458245789e+001°)
2.76713275794354e+001	(6.21695611525825e+001dB,-6.16399548316357e+001°)
2.77351165774376e+001	(6.21474734401271e+001dB,-6.16894114471250e+001°)
2.77990526242669e+001	(6.21253368134083e+001dB,-6.17386138969375e+001°)
2.78631360589058e+001	(6.21031512708798e+001dB,-6.17875603987643e+001°)
2.79273672211185e+001	(6.20809168118476e+001dB,-6.18362491620640e+001°)
2.79917464514521e+001	(6.20586334364868e+001dB,-6.18846783880509e+001°)
2.80562740912389e+001	(6.20363011458424e+001dB,-6.19328462695928e+001°)
2.81209504825981e+001	(6.20139199418522e+001dB,-6.19807509912342e+001°)
2.81857759684373e+001	(6.19914898273466e+001dB,-6.20283907291067e+001°)
2.82507508924549e+001	(6.19690108060686e+001dB,-6.20757636509100e+001°)
2.83158755991414e+001	(6.19464828826823e+001dB,-6.21228679158767e+001°)
2.83811504337816e+001	(6.19239060627798e+001dB,-6.21697016746935e+001°)
2.84465757424562e+001	(6.19012803529003e+001dB,-6.22162630694995e+001°)
2.85121518720435e+001	(6.18786057605351e+001dB,-6.22625502338136e+001°)
2.85778791702218e+001	(6.18558822941488e+001dB,-6.23085612925234e+001°)
2.86437579854706e+001	(6.18331099631815e+001dB,-6.23542943618100e+001°)
2.87097886670729e+001	(6.18102887780663e+001dB,-6.23997475491248e+001°)
2.87759715651167e+001	(6.17874187502422e+001dB,-6.24449189531446e+001°)
2.88423070304971e+001	(6.17644998921643e+001dB,-6.24898066637215e+001°)
2.89087954149183e+001	(6.17415322173209e+001dB,-6.25344087618658e+001°)
2.89754370708950e+001	(6.17185157402409e+001dB,-6.25787233196638e+001°)
2.90422323517546e+001	(6.16954504765091e+001dB,-6.26227484002540e+001°)
2.91091816116391e+001	(6.16723364427861e+001dB,-6.26664820578066e+001°)
2.91762852055067e+001	(6.16491736568083e+001dB,-6.27099223374448e+001°)
2.92435434891341e+001	(6.16259621374156e+001dB,-6.27530672752247e+001°)
2.93109568191180e+001	(6.16027019045566e+001dB,-6.27959148980950e+001°)
2.93785255528771e+001	(6.15793929793038e+001dB,-6.28384632238277e+001°)
2.94462500486541e+001	(6.15560353838759e+001dB,-6.28807102610253e+001°)
2.95141306655176e+001	(6.15326291416408e+001dB,-6.29226540090375e+001°)
2.95821677633639e+001	(6.15091742771379e+001dB,-6.29642924579298e+001°)
2.96503617029188e+001	(6.14856708160856e+001dB,-6.30056235884369e+001°)
2.97187128457399e+001	(6.14621187854093e+001dB,-6.30466453719518e+001°)
2.97872215542180e+001	(6.14385182132420e+001dB,-6.30873557704432e+001°)
2.98558881915797e+001	(6.14148691289517e+001dB,-6.31277527364409e+001°)
2.99247131218884e+001	(6.13911715631494e+001dB,-6.31678342129891e+001°)
2.99936967100472e+001	(6.13674255477104e+001dB,-6.32075981336158e+001°)
3.00628393218002e+001	(6.13436311157830e+001dB,-6.32470424222488e+001°)
3.01321413237346e+001	(6.13197883018126e+001dB,-6.32861649932291e+001°)
3.02016030832827e+001	(6.12958971415544e+001dB,-6.33249637512502e+001°)
3.02712249687239e+001	(6.12719576720965e+001dB,-6.33634365913319e+001°)
3.03410073491864e+001	(6.12479699318621e+001dB,-6.34015813987260e+001°)
3.04109505946496e+001	(6.12239339606421e+001dB,-6.34393960489547e+001°)
3.04810550759455e+001	(6.11998497996048e+001dB,-6.34768784077154e+001°)
3.05513211647612e+001	(6.11757174913175e+001dB,-6.35140263308813e+001°)
3.06217492336403e+001	(6.11515370797541e+001dB,-6.35508376644009e+001°)
3.06923396559856e+001	(6.11273086103349e+001dB,-6.35873102443652e+001°)
3.07630928060604e+001	(6.11030321299200e+001dB,-6.36234418968552e+001°)
3.08340090589909e+001	(6.10787076868430e+001dB,-6.36592304379794e+001°)
3.09050887907680e+001	(6.10543353309285e+001dB,-6.36946736738244e+001°)
3.09763323782493e+001	(6.10299151135034e+001dB,-6.37297694003843e+001°)
3.10477401991613e+001	(6.10054470874270e+001dB,-6.37645154035581e+001°)
3.11193126321012e+001	(6.09809313071010e+001dB,-6.37989094591169e+001°)
3.11910500565388e+001	(6.09563678284999e+001dB,-6.38329493326595e+001°)
3.12629528528188e+001	(6.09317567091731e+001dB,-6.38666327795414e+001°)
3.13350214021627e+001	(6.09070980082884e+001dB,-6.38999575449167e+001°)
3.14072560866707e+001	(6.08823917866364e+001dB,-6.39329213636480e+001°)
3.14796572893241e+001	(6.08576381066537e+001dB,-6.39655219602823e+001°)
3.15522253939866e+001	(6.08328370324511e+001dB,-6.39977570490310e+001°)
3.16249607854073e+001	(6.08079886298229e+001dB,-6.40296243337212e+001°)
3.16978638492219e+001	(6.07830929662855e+001dB,-6.40611215078041e+001°)
3.17709349719552e+001	(6.07581501110818e+001dB,-6.40922462542673e+001°)
3.18441745410231e+001	(6.07331601352144e+001dB,-6.41229962456464e+001°)
3.19175829447343e+001	(6.07081231114622e+001dB,-6.41533691439727e+001°)
3.19911605722930e+001	(6.06830391144074e+001dB,-6.41833626007604e+001°)
3.20649078138005e+001	(6.06579082204598e+001dB,-6.42129742569852e+001°)
3.21388250602572e+001	(6.06327305078712e+001dB,-6.42422017430275e+001°)
3.22129127035651e+001	(6.06075060567685e+001dB,-6.42710426786679e+001°)
3.22871711365294e+001	(6.05822349491737e+001dB,-6.42994946730687e+001°)
3.23616007528610e+001	(6.05569172690272e+001dB,-6.43275553247222e+001°)
3.24362019471783e+001	(6.05315531022146e+001dB,-6.43552222214642e+001°)
3.25109751150093e+001	(6.05061425365905e+001dB,-6.43824929404131e+001°)
3.25859206527941e+001	(6.04806856620015e+001dB,-6.44093650479680e+001°)
3.26610389578863e+001	(6.04551825703150e+001dB,-6.44358360997927e+001°)
3.27363304285558e+001	(6.04296333554412e+001dB,-6.44619036407803e+001°)
3.28117954639904e+001	(6.04040381133630e+001dB,-6.44875652050415e+001°)
3.28874344642983e+001	(6.03783969421624e+001dB,-6.45128183159130e+001°)
3.29632478305098e+001	(6.03527099420381e+001dB,-6.45376604858661e+001°)
3.30392359645799e+001	(6.03269772153468e+001dB,-6.45620892165849e+001°)
3.31153992693902e+001	(6.03011988666199e+001dB,-6.45861019988954e+001°)
3.31917381487508e+001	(6.02753750025928e+001dB,-6.46096963127483e+001°)
3.32682530074030e+001	(6.02495057322368e+001dB,-6.46328696272444e+001°)
3.33449442510209e+001	(6.02235911667810e+001dB,-6.46556194005801e+001°)
3.34218122862138e+001	(6.01976314197474e+001dB,-6.46779430800706e+001°)
3.34988575205284e+001	(6.01716266069777e+001dB,-6.46998381021407e+001°)
3.35760803624508e+001	(6.01455768466603e+001dB,-6.47213018923029e+001°)
3.36534812214090e+001	(6.01194822593557e+001dB,-6.47423318651382e+001°)
3.37310605077744e+001	(6.00933429680414e+001dB,-6.47629254243326e+001°)
3.38088186328649e+001	(6.00671590981268e+001dB,-6.47830799626490e+001°)
3.38867560089462e+001	(6.00409307774872e+001dB,-6.48027928619200e+001°)
3.39648730492345e+001	(6.00146581365016e+001dB,-6.48220614930628e+001°)
3.40431701678986e+001	(5.99883413080799e+001dB,-6.48408832161039e+001°)
3.41216477800621e+001	(5.99619804276875e+001dB,-6.48592553801110e+001°)
3.42003063018053e+001	(5.99355756333891e+001dB,-6.48771753232723e+001°)
3.42791461501681e+001	(5.99091270658715e+001dB,-6.48946403728592e+001°)
3.43581677431514e+001	(5.98826348684855e+001dB,-6.49116478452863e+001°)
3.44373714997197e+001	(5.98560991872662e+001dB,-6.49281950460381e+001°)
3.45167578398037e+001	(5.98295201709798e+001dB,-6.49442792697689e+001°)
3.45963271843016e+001	(5.98028979711482e+001dB,-6.49598978002619e+001°)
3.46760799550823e+001	(5.97762327420858e+001dB,-6.49750479104715e+001°)
3.47560165749871e+001	(5.97495246409367e+001dB,-6.49897268625303e+001°)
3.48361374678319e+001	(5.97227738277051e+001dB,-6.50039319077841e+001°)
3.49164430584097e+001	(5.96959804652918e+001dB,-6.50176602867887e+001°)
3.49969337724927e+001	(5.96691447195317e+001dB,-6.50309092293659e+001°)
3.50776100368348e+001	(5.96422667592274e+001dB,-6.50436759545999e+001°)
3.51584722791734e+001	(5.96153467561892e+001dB,-6.50559576709153e+001°)
3.52395209282322e+001	(5.95883848852650e+001dB,-6.50677515760447e+001°)
3.53207564137229e+001	(5.95613813243836e+001dB,-6.50790548571030e+001°)
3.54021791663480e+001	(5.95343362545910e+001dB,-6.50898646906386e+001°)
3.54837896178029e+001	(5.95072498600856e+001dB,-6.51001782426335e+001°)
3.55655882007780e+001	(5.94801223282582e+001dB,-6.51099926685623e+001°)
3.56475753489613e+001	(5.94529538497291e+001dB,-6.51193051134420e+001°)
3.57297514970406e+001	(5.94257446183928e+001dB,-6.51281127118915e+001°)
3.58121170807054e+001	(5.93984948314449e+001dB,-6.51364125881351e+001°)
3.58946725366501e+001	(5.93712046894402e+001dB,-6.51442018561281e+001°)
3.59774183025753e+001	(5.93438743963119e+001dB,-6.51514776195298e+001°)
3.60603548171909e+001	(5.93165041594316e+001dB,-6.51582369718426e+001°)
3.61434825202181e+001	(5.92890941896350e+001dB,-6.51644769964121e+001°)
3.62268018523916e+001	(5.92616447012687e+001dB,-6.51701947665153e+001°)
3.63103132554622e+001	(5.92341559122375e+001dB,-6.51753873454476e+001°)
3.63940171721992e+001	(5.92066280440400e+001dB,-6.51800517865770e+001°)
3.64779140463923e+001	(5.91790613218091e+001dB,-6.51841851333988e+001°)
3.65620043228544e+001	(5.91514559743610e+001dB,-6.51877844196575e+001°)
3.66462884474238e+001	(5.91238122342345e+001dB,-6.51908466693941e+001°)
3.67307668669664e+001	(5.90961303377344e+001dB,-6.51933688970398e+001°)
3.68154400293786e+001	(5.90684105249800e+001dB,-6.51953481075250e+001°)
3.69003083835890e+001	(5.90406530399417e+001dB,-6.51967812963459e+001°)
3.69853723795611e+001	(5.90128581304931e+001dB,-6.51976654496691e+001°)
3.70706324682957e+001	(5.89850260484531e+001dB,-6.51979975444498e+001°)
3.71560891018335e+001	(5.89571570496279e+001dB,-6.51977745484964e+001°)
3.72417427332568e+001	(5.89292513938638e+001dB,-6.51969934206223e+001°)
3.73275938166929e+001	(5.89013093450884e+001dB,-6.51956511107415e+001°)
3.74136428073155e+001	(5.88733311713573e+001dB,-6.51937445599715e+001°)
3.74998901613479e+001	(5.88453171449053e+001dB,-6.51912707007775e+001°)
3.75863363360649e+001	(5.88172675421893e+001dB,-6.51882264570928e+001°)
3.76729817897955e+001	(5.87891826439380e+001dB,-6.51846087444299e+001°)
3.77598269819254e+001	(5.87610627351987e+001dB,-6.51804144700375e+001°)
