Freq.	V(cascada)
2.00000000000000e+001	(-3.28900350714023e+000dB,1.43815833671807e+002°)
2.00461047615580e+001	(-3.30068183300427e+000dB,1.43772138054558e+002°)
2.00923158055679e+001	(-3.31239219842569e+000dB,1.43728523052640e+002°)
2.01386333770361e+001	(-3.32413464050421e+000dB,1.43684989481922e+002°)
2.01850577215337e+001	(-3.33590919613734e+000dB,1.43641538161456e+002°)
2.02315890851980e+001	(-3.34771590201608e+000dB,1.43598169913573e+002°)
2.02782277147336e+001	(-3.35955479463084e+000dB,1.43554885563822e+002°)
2.03249738574139e+001	(-3.37142591026920e+000dB,1.43511685941015e+002°)
2.03718277610823e+001	(-3.38332928500719e+000dB,1.43468571877252e+002°)
2.04187896741536e+001	(-3.39526495471089e+000dB,1.43425544207925e+002°)
2.04658598456151e+001	(-3.40723295504791e+000dB,1.43382603771686e+002°)
2.05130385250281e+001	(-3.41923332145764e+000dB,1.43339751410567e+002°)
2.05603259625295e+001	(-3.43126608918474e+000dB,1.43296987969859e+002°)
2.06077224088323e+001	(-3.44333129324700e+000dB,1.43254314298249e+002°)
2.06552281152279e+001	(-3.45542896845352e+000dB,1.43211731247753e+002°)
2.07028433335869e+001	(-3.46755914939801e+000dB,1.43169239673745e+002°)
2.07505683163602e+001	(-3.47972187044939e+000dB,1.43126840435024e+002°)
2.07984033165812e+001	(-3.49191716576589e+000dB,1.43084534393731e+002°)
2.08463485878661e+001	(-3.50414506927756e+000dB,1.43042322415460e+002°)
2.08944043844160e+001	(-3.51640561469971e+000dB,1.43000205369204e+002°)
2.09425709610180e+001	(-3.52869883551371e+000dB,1.42958184127429e+002°)
2.09908485730464e+001	(-3.54102476498120e+000dB,1.42916259566043e+002°)
2.10392374764644e+001	(-3.55338343613673e+000dB,1.42874432564417e+002°)
2.10877379278252e+001	(-3.56577488178880e+000dB,1.42832704005403e+002°)
2.11363501842731e+001	(-3.57819913451086e+000dB,1.42791074775379e+002°)
2.11850745035458e+001	(-3.59065622664567e+000dB,1.42749545764226e+002°)
2.12339111439745e+001	(-3.60314619030764e+000dB,1.42708117865347e+002°)
2.12828603644863e+001	(-3.61566905736724e+000dB,1.42666791975736e+002°)
2.13319224246051e+001	(-3.62822485947000e+000dB,1.42625568995887e+002°)
2.13810975844531e+001	(-3.64081362801182e+000dB,1.42584449829950e+002°)
2.14303861047521e+001	(-3.65343539415178e+000dB,1.42543435385619e+002°)
2.14797882468249e+001	(-3.66609018881643e+000dB,1.42502526574217e+002°)
2.15293042725967e+001	(-3.67877804267987e+000dB,1.42461724310700e+002°)
2.15789344445965e+001	(-3.69149898616614e+000dB,1.42421029513713e+002°)
2.16286790259587e+001	(-3.70425304946807e+000dB,1.42380443105486e+002°)
2.16785382804240e+001	(-3.71704026251470e+000dB,1.42339966011997e+002°)
2.17285124723413e+001	(-3.72986065499425e+000dB,1.42299599162913e+002°)
2.17786018666686e+001	(-3.74271425634006e+000dB,1.42259343491593e+002°)
2.18288067289751e+001	(-3.75560109572807e+000dB,1.42219199935174e+002°)
2.18791273254418e+001	(-3.76852120208276e+000dB,1.42179169434513e+002°)
2.19295639228637e+001	(-3.78147460406661e+000dB,1.42139252934266e+002°)
2.19801167886504e+001	(-3.79446133008699e+000dB,1.42099451382860e+002°)
2.20307861908283e+001	(-3.80748140828299e+000dB,1.42059765732560e+002°)
2.20815723980414e+001	(-3.82053486654095e+000dB,1.42020196939416e+002°)
2.21324756795533e+001	(-3.83362173245916e+000dB,1.41980745963403e+002°)
2.21834963052480e+001	(-3.84674203339720e+000dB,1.41941413768286e+002°)
2.22346345456318e+001	(-3.85989579642475e+000dB,1.41902201321742e+002°)
2.22858906718345e+001	(-3.87308304834296e+000dB,1.41863109595391e+002°)
2.23372649556112e+001	(-3.88630381568870e+000dB,1.41824139564719e+002°)
2.23887576693430e+001	(-3.89955812470520e+000dB,1.41785292209231e+002°)
2.24403690860392e+001	(-3.91284600136557e+000dB,1.41746568512364e+002°)
2.24920994793385e+001	(-3.92616747137342e+000dB,1.41707969461519e+002°)
2.25439491235101e+001	(-3.93952256013440e+000dB,1.41669496048133e+002°)
2.25959182934559e+001	(-3.95291129276843e+000dB,1.41631149267703e+002°)
2.26480072647111e+001	(-3.96633369412354e+000dB,1.41592930119720e+002°)
2.27002163134462e+001	(-3.97978978873521e+000dB,1.41554839607794e+002°)
2.27525457164686e+001	(-3.99327960087073e+000dB,1.41516878739596e+002°)
2.28049957512233e+001	(-4.00680315447982e+000dB,1.41479048526966e+002°)
2.28575666957954e+001	(-4.02036047323470e+000dB,1.41441349985814e+002°)
2.29102588289106e+001	(-4.03395158049673e+000dB,1.41403784136260e+002°)
2.29630724299376e+001	(-4.04757649932713e+000dB,1.41366352002593e+002°)
2.30160077788886e+001	(-4.06123525247983e+000dB,1.41329054613327e+002°)
2.30690651564218e+001	(-4.07492786240895e+000dB,1.41291893001164e+002°)
2.31222448438419e+001	(-4.08865435125852e+000dB,1.41254868203083e+002°)
2.31755471231024e+001	(-4.10241474084553e+000dB,1.41217981260376e+002°)
2.32289722768068e+001	(-4.11620905268679e+000dB,1.41181233218578e+002°)
2.32825205882097e+001	(-4.13003730798118e+000dB,1.41144625127548e+002°)
2.33361923412192e+001	(-4.14389952759663e+000dB,1.41108158041549e+002°)
2.33899878203973e+001	(-4.15779573208388e+000dB,1.41071833019164e+002°)
2.34439073109625e+001	(-4.17172594166403e+000dB,1.41035651123413e+002°)
2.34979510987905e+001	(-4.18569017623825e+000dB,1.40999613421677e+002°)
2.35521194704161e+001	(-4.19968845535957e+000dB,1.40963720985863e+002°)
2.36064127130345e+001	(-4.21372079825494e+000dB,1.40927974892290e+002°)
2.36608311145032e+001	(-4.22778722381458e+000dB,1.40892376221795e+002°)
2.37153749633431e+001	(-4.24188775058054e+000dB,1.40856926059754e+002°)
2.37700445487403e+001	(-4.25602239675816e+000dB,1.40821625496055e+002°)
2.38248401605474e+001	(-4.27019118019947e+000dB,1.40786475625189e+002°)
2.38797620892854e+001	(-4.28439411840757e+000dB,1.40751477546230e+002°)
2.39348106261448e+001	(-4.29863122852491e+000dB,1.40716632362925e+002°)
2.39899860629875e+001	(-4.31290252734280e+000dB,1.40681941183617e+002°)
2.40452886923482e+001	(-4.32720803129393e+000dB,1.40647405121363e+002°)
2.41007188074358e+001	(-4.34154775644118e+000dB,1.40613025293921e+002°)
2.41562767021355e+001	(-4.35592171847690e+000dB,1.40578802823805e+002°)
2.42119626710095e+001	(-4.37032993272382e+000dB,1.40544738838270e+002°)
2.42677770092994e+001	(-4.38477241413564e+000dB,1.40510834469378e+002°)
2.43237200129273e+001	(-4.39924917728174e+000dB,1.40477090854002e+002°)
2.43797919784972e+001	(-4.41376023634641e+000dB,1.40443509133874e+002°)
2.44359932032973e+001	(-4.42830560513021e+000dB,1.40410090455607e+002°)
2.44923239853009e+001	(-4.44288529704762e+000dB,1.40376835970708e+002°)
2.45487846231680e+001	(-4.45749932510586e+000dB,1.40343746835665e+002°)
2.46053754162475e+001	(-4.47214770193065e+000dB,1.40310824211847e+002°)
2.46620966645781e+001	(-4.48683043973874e+000dB,1.40278069265708e+002°)
2.47189486688901e+001	(-4.50154755033342e+000dB,1.40245483168684e+002°)
2.47759317306073e+001	(-4.51629904511136e+000dB,1.40213067097292e+002°)
2.48330461518481e+001	(-4.53108493506298e+000dB,1.40180822233095e+002°)
2.48902922354276e+001	(-4.54590523075216e+000dB,1.40148749762820e+002°)
2.49476702848587e+001	(-4.56075994231683e+000dB,1.40116850878322e+002°)
2.50051806043543e+001	(-4.57564907947677e+000dB,1.40085126776632e+002°)
2.50628234988282e+001	(-4.59057265150488e+000dB,1.40053578660014e+002°)
2.51205992738974e+001	(-4.60553066725826e+000dB,1.40022207735936e+002°)
2.51785082358832e+001	(-4.62052313513461e+000dB,1.39991015217177e+002°)
2.52365506918133e+001	(-4.63555006308241e+000dB,1.39960002321848e+002°)
2.52947269494229e+001	(-4.65061145862526e+000dB,1.39929170273312e+002°)
2.53530373171568e+001	(-4.66570732880248e+000dB,1.39898520300396e+002°)
2.54114821041707e+001	(-4.68083768020721e+000dB,1.39868053637285e+002°)
2.54700616203331e+001	(-4.69600251896183e+000dB,1.39837771523613e+002°)
2.55287761762267e+001	(-4.71120185072806e+000dB,1.39807675204473e+002°)
2.55876260831504e+001	(-4.72643568067224e+000dB,1.39777765930508e+002°)
2.56466116531203e+001	(-4.74170401349590e+000dB,1.39748044957861e+002°)
2.57057331988722e+001	(-4.75700685341166e+000dB,1.39718513548256e+002°)
2.57649910338625e+001	(-4.77234420413175e+000dB,1.39689172969033e+002°)
2.58243854722705e+001	(-4.78771606888496e+000dB,1.39660024493164e+002°)
2.58839168289996e+001	(-4.80312245038138e+000dB,1.39631069399311e+002°)
2.59435854196790e+001	(-4.81856335083668e+000dB,1.39602308971831e+002°)
2.60033915606657e+001	(-4.83403877194095e+000dB,1.39573744500864e+002°)
2.60633355690458e+001	(-4.84954871486906e+000dB,1.39545377282303e+002°)
2.61234177626367e+001	(-4.86509318026675e+000dB,1.39517208617868e+002°)
2.61836384599880e+001	(-4.88067216826026e+000dB,1.39489239815119e+002°)
2.62439979803839e+001	(-4.89628567841872e+000dB,1.39461472187536e+002°)
2.63044966438446e+001	(-4.91193370977665e+000dB,1.39433907054520e+002°)
2.63651347711280e+001	(-4.92761626081932e+000dB,1.39406545741409e+002°)
2.64259126837313e+001	(-4.94333332946570e+000dB,1.39379389579594e+002°)
2.64868307038931e+001	(-4.95908491308009e+000dB,1.39352439906453e+002°)
2.65478891545946e+001	(-4.97487100845009e+000dB,1.39325698065477e+002°)
2.66090883595617e+001	(-4.99069161179617e+000dB,1.39299165406236e+002°)
2.66704286432663e+001	(-5.00654671874146e+000dB,1.39272843284475e+002°)
2.67319103309287e+001	(-5.02243632432638e+000dB,1.39246733062116e+002°)
2.67935337485185e+001	(-5.03836042299108e+000dB,1.39220836107330e+002°)
2.68552992227571e+001	(-5.05431900857568e+000dB,1.39195153794489e+002°)
2.69172070811188e+001	(-5.07031207429507e+000dB,1.39169687504378e+002°)
2.69792576518329e+001	(-5.08633961275798e+000dB,1.39144438624024e+002°)
2.70414512638854e+001	(-5.10240161593757e+000dB,1.39119408546879e+002°)
2.71037882470205e+001	(-5.11849807518134e+000dB,1.39094598672799e+002°)
2.71662689317429e+001	(-5.13462898117713e+000dB,1.39070010408136e+002°)
2.72288936493188e+001	(-5.15079432398232e+000dB,1.39045645165694e+002°)
2.72916627317783e+001	(-5.16699409298573e+000dB,1.39021504364827e+002°)
2.73545765119168e+001	(-5.18322827690517e+000dB,1.38997589431492e+002°)
2.74176353232969e+001	(-5.19949686379705e+000dB,1.38973901798246e+002°)
2.74808395002501e+001	(-5.21579984102688e+000dB,1.38950442904289e+002°)
2.75441893778787e+001	(-5.23213719526226e+000dB,1.38927214195574e+002°)
2.76076852920575e+001	(-5.24850891248663e+000dB,1.38904217124707e+002°)
2.76713275794354e+001	(-5.26491497795891e+000dB,1.38881453151170e+002°)
2.77351165774376e+001	(-5.28135537623317e+000dB,1.38858923741185e+002°)
2.77990526242669e+001	(-5.29783009112993e+000dB,1.38836630367895e+002°)
2.78631360589058e+001	(-5.31433910573140e+000dB,1.38814574511314e+002°)
2.79273672211185e+001	(-5.33088240239014e+000dB,1.38792757658376e+002°)
2.79917464514521e+001	(-5.34745996268259e+000dB,1.38771181303067e+002°)
2.80562740912389e+001	(-5.36407176744004e+000dB,1.38749846946323e+002°)
2.81209504825981e+001	(-5.38071779670843e+000dB,1.38728756096235e+002°)
2.81857759684373e+001	(-5.39739802975437e+000dB,1.38707910267925e+002°)
2.82507508924549e+001	(-5.41411244505062e+000dB,1.38687310983726e+002°)
2.83158755991414e+001	(-5.43086102027125e+000dB,1.38666959773110e+002°)
2.83811504337816e+001	(-5.44764373227632e+000dB,1.38646858172794e+002°)
2.84465757424562e+001	(-5.46446055708668e+000dB,1.38627007726836e+002°)
2.85121518720435e+001	(-5.48131146991669e+000dB,1.38607409986513e+002°)
2.85778791702218e+001	(-5.49819644510063e+000dB,1.38588066510580e+002°)
2.86437579854706e+001	(-5.51511545614941e+000dB,1.38568978865085e+002°)
2.87097886670729e+001	(-5.53206847569030e+000dB,1.38550148623573e+002°)
2.87759715651167e+001	(-5.54905547546163e+000dB,1.38531577367133e+002°)
2.88423070304971e+001	(-5.56607642633331e+000dB,1.38513266684278e+002°)
2.89087954149183e+001	(-5.58313129827129e+000dB,1.38495218171133e+002°)
2.89754370708950e+001	(-5.60022006031023e+000dB,1.38477433431490e+002°)
2.90422323517546e+001	(-5.61734268057703e+000dB,1.38459914076743e+002°)
2.91091816116391e+001	(-5.63449912624646e+000dB,1.38442661726025e+002°)
2.91762852055067e+001	(-5.65168936356314e+000dB,1.38425678006185e+002°)
2.92435434891341e+001	(-5.66891335779742e+000dB,1.38408964551841e+002°)
2.93109568191180e+001	(-5.68617107324713e+000dB,1.38392523005509e+002°)
2.93785255528771e+001	(-5.70346247321270e+000dB,1.38376355017540e+002°)
2.94462500486541e+001	(-5.72078752001920e+000dB,1.38360462246156e+002°)
2.95141306655176e+001	(-5.73814617495164e+000dB,1.38344846357599e+002°)
2.95821677633639e+001	(-5.75553839829283e+000dB,1.38329509026074e+002°)
2.96503617029188e+001	(-5.77296414925967e+000dB,1.38314451933848e+002°)
2.97187128457399e+001	(-5.79042338603701e+000dB,1.38299676771247e+002°)
2.97872215542180e+001	(-5.80791606572646e+000dB,1.38285185236767e+002°)
2.98558881915797e+001	(-5.82544214435852e+000dB,1.38270979037011e+002°)
2.99247131218884e+001	(-5.84300157685767e+000dB,1.38257059886848e+002°)
2.99936967100472e+001	(-5.86059431704690e+000dB,1.38243429509357e+002°)
3.00628393218002e+001	(-5.87822031761130e+000dB,1.38230089635934e+002°)
3.01321413237346e+001	(-5.89587953011778e+000dB,1.38217042006262e+002°)
3.02016030832827e+001	(-5.91357190494081e+000dB,1.38204288368514e+002°)
3.02712249687239e+001	(-5.93129739132348e+000dB,1.38191830479123e+002°)
3.03410073491864e+001	(-5.94905593729561e+000dB,1.38179670103098e+002°)
3.04109505946496e+001	(-5.96684748968563e+000dB,1.38167809013938e+002°)
3.04810550759455e+001	(-5.98467199412370e+000dB,1.38156248993593e+002°)
3.05513211647612e+001	(-6.00252939498077e+000dB,1.38144991832678e+002°)
3.06217492336403e+001	(-6.02041963538518e+000dB,1.38134039330403e+002°)
3.06923396559856e+001	(-6.03834265720597e+000dB,1.38123393294620e+002°)
3.07630928060604e+001	(-6.05629840101052e+000dB,1.38113055541916e+002°)
3.08340090589909e+001	(-6.07428680608090e+000dB,1.38103027897559e+002°)
3.09050887907680e+001	(-6.09230781036160e+000dB,1.38093312195646e+002°)
3.09763323782493e+001	(-6.11036135047439e+000dB,1.38083910279051e+002°)
3.10477401991613e+001	(-6.12844736167833e+000dB,1.38074823999529e+002°)
3.11193126321012e+001	(-6.14656577785696e+000dB,1.38066055217722e+002°)
3.11910500565388e+001	(-6.16471653151396e+000dB,1.38057605803160e+002°)
3.12629528528188e+001	(-6.18289955372080e+000dB,1.38049477634409e+002°)
3.13350214021627e+001	(-6.20111477414587e+000dB,1.38041672598946e+002°)
3.14072560866707e+001	(-6.21936212098478e+000dB,1.38034192593350e+002°)
3.14796572893241e+001	(-6.23764152097721e+000dB,1.38027039523292e+002°)
3.15522253939866e+001	(-6.25595289937504e+000dB,1.38020215303463e+002°)
3.16249607854073e+001	(-6.27429617991333e+000dB,1.38013721857788e+002°)
3.16978638492219e+001	(-6.29267128481450e+000dB,1.38007561119292e+002°)
3.17709349719552e+001	(-6.31107813474542e+000dB,1.38001735030238e+002°)
3.18441745410231e+001	(-6.32951664879060e+000dB,1.37996245542175e+002°)
3.19175829447343e+001	(-6.34798674445934e+000dB,1.37991094615882e+002°)
3.19911605722930e+001	(-6.36648833764871e+000dB,1.37986284221419e+002°)
3.20649078138005e+001	(-6.38502134261579e+000dB,1.37981816338234e+002°)
3.21388250602572e+001	(-6.40358567196663e+000dB,1.37977692955123e+002°)
3.22129127035651e+001	(-6.42218123662990e+000dB,1.37973916070250e+002°)
3.22871711365294e+001	(-6.44080794583148e+000dB,1.37970487691258e+002°)
3.23616007528610e+001	(-6.45946570708514e+000dB,1.37967409835172e+002°)
3.24362019471783e+001	(-6.47815442613139e+000dB,1.37964684528612e+002°)
3.25109751150093e+001	(-6.49687400697723e+000dB,1.37962313807567e+002°)
3.25859206527941e+001	(-6.51562435181467e+000dB,1.37960299717654e+002°)
3.26610389578863e+001	(-6.53440536103050e+000dB,1.37958644313984e+002°)
3.27363304285558e+001	(-6.55321693315805e+000dB,1.37957349661317e+002°)
3.28117954639904e+001	(-6.57205896488248e+000dB,1.37956417833937e+002°)
3.28874344642983e+001	(-6.59093135098025e+000dB,1.37955850915813e+002°)
3.29632478305098e+001	(-6.60983398432544e+000dB,1.37955651000550e+002°)
3.30392359645799e+001	(-6.62876675584173e+000dB,1.37955820191399e+002°)
3.31153992693902e+001	(-6.64772955449976e+000dB,1.37956360601290e+002°)
3.31917381487508e+001	(-6.66672226725865e+000dB,1.37957274352891e+002°)
3.32682530074030e+001	(-6.68574477907963e+000dB,1.37958563578519e+002°)
3.33449442510209e+001	(-6.70479697286187e+000dB,1.37960230420308e+002°)
3.34218122862138e+001	(-6.72387872943720e+000dB,1.37962277030061e+002°)
3.34988575205284e+001	(-6.74298992752955e+000dB,1.37964705569425e+002°)
3.35760803624508e+001	(-6.76213044374235e+000dB,1.37967518209751e+002°)
3.36534812214090e+001	(-6.78130015252671e+000dB,1.37970717132182e+002°)
3.37310605077744e+001	(-6.80049892613976e+000dB,1.37974304527649e+002°)
3.38088186328649e+001	(-6.81972663462233e+000dB,1.37978282596905e+002°)
3.38867560089462e+001	(-6.83898314578783e+000dB,1.37982653550472e+002°)
3.39648730492345e+001	(-6.85826832515831e+000dB,1.37987419608714e+002°)
3.40431701678986e+001	(-6.87758203596882e+000dB,1.37992583001755e+002°)
3.41216477800621e+001	(-6.89692413910416e+000dB,1.37998145969606e+002°)
3.42003063018053e+001	(-6.91629449310950e+000dB,1.38004110762008e+002°)
3.42791461501681e+001	(-6.93569295411294e+000dB,1.38010479638560e+002°)
3.43581677431514e+001	(-6.95511937583893e+000dB,1.38017254868640e+002°)
3.44373714997197e+001	(-6.97457360952197e+000dB,1.38024438731478e+002°)
3.45167578398037e+001	(-6.99405550395644e+000dB,1.38032033515987e+002°)
3.45963271843016e+001	(-7.01356490537546e+000dB,1.38040041520946e+002°)
3.46760799550823e+001	(-7.03310165746756e+000dB,1.38048465054934e+002°)
3.47560165749871e+001	(-7.05266560134529e+000dB,1.38057306436184e+002°)
3.48361374678319e+001	(-7.07225657548671e+000dB,1.38066567992771e+002°)
3.49164430584097e+001	(-7.09187441572959e+000dB,1.38076252062408e+002°)
3.49969337724927e+001	(-7.11151895521671e+000dB,1.38086360992577e+002°)
3.50776100368348e+001	(-7.13119002435416e+000dB,1.38096897140452e+002°)
3.51584722791734e+001	(-7.15088745080938e+000dB,1.38107862872808e+002°)
3.52395209282322e+001	(-7.17061105945212e+000dB,1.38119260566106e+002°)
3.53207564137229e+001	(-7.19036067231783e+000dB,1.38131092606362e+002°)
3.54021791663480e+001	(-7.21013610857162e+000dB,1.38143361389256e+002°)
3.54837896178029e+001	(-7.22993718449876e+000dB,1.38156069319897e+002°)
3.55655882007780e+001	(-7.24976371341807e+000dB,1.38169218812995e+002°)
3.56475753489613e+001	(-7.26961550569334e+000dB,1.38182812292664e+002°)
3.57297514970406e+001	(-7.28949236865867e+000dB,1.38196852192506e+002°)
3.58121170807054e+001	(-7.30939410661367e+000dB,1.38211340955415e+002°)
3.58946725366501e+001	(-7.32932052075914e+000dB,1.38226281033711e+002°)
3.59774183025753e+001	(-7.34927140916143e+000dB,1.38241674888950e+002°)
3.60603548171909e+001	(-7.36924656672766e+000dB,1.38257524991957e+002°)
3.61434825202181e+001	(-7.38924578514937e+000dB,1.38273833822693e+002°)
3.62268018523916e+001	(-7.40926885288616e+000dB,1.38290603870273e+002°)
3.63103132554622e+001	(-7.42931555508038e+000dB,1.38307837632874e+002°)
3.63940171721992e+001	(-7.44938567359515e+000dB,1.38325537617596e+002°)
3.64779140463923e+001	(-7.46947898686309e+000dB,1.38343706340572e+002°)
3.65620043228544e+001	(-7.48959526995001e+000dB,1.38362346326722e+002°)
3.66462884474238e+001	(-7.50973429445132e+000dB,1.38381460109785e+002°)
3.67307668669664e+001	(-7.52989582846790e+000dB,1.38401050232152e+002°)
3.68154400293786e+001	(-7.55007963656051e+000dB,1.38421119244889e+002°)
3.69003083835890e+001	(-7.57028547971897e+000dB,1.38441669707554e+002°)
3.69853723795611e+001	(-7.59051311530172e+000dB,1.38462704188138e+002°)
3.70706324682957e+001	(-7.61076229698758e+000dB,1.38484225263061e+002°)
3.71560891018335e+001	(-7.63103277475790e+000dB,1.38506235516935e+002°)
3.72417427332568e+001	(-7.65132429483231e+000dB,1.38528737542528e+002°)
3.73275938166929e+001	(-7.67163659962868e+000dB,1.38551733940663e+002°)
3.74136428073155e+001	(-7.69196942771508e+000dB,1.38575227320110e+002°)
3.74998901613479e+001	(-7.71232251375301e+000dB,1.38599220297498e+002°)
3.75863363360649e+001	(-7.73269558849372e+000dB,1.38623715497082e+002°)
3.76729817897955e+001	(-7.75308837867444e+000dB,1.38648715550791e+002°)
3.77598269819254e+001	(-7.77350060701704e+000dB,1.38674223097949e+002°)
