Freq.	V(vout)
1.00000000000000e+002	(-4.30362664521640e+000dB,1.79878840663277e+002°)
1.00230523807790e+002	(-4.30362671287246e+000dB,1.79878561362719e+002°)
1.00461579027840e+002	(-4.30362678083825e+000dB,1.79878281418312e+002°)
1.00693166885180e+002	(-4.30362684911651e+000dB,1.79878000828570e+002°)
1.00925288607668e+002	(-4.30362691771302e+000dB,1.79877719592005e+002°)
1.01157945425990e+002	(-4.30362698662814e+000dB,1.79877437707127e+002°)
1.01391138573668e+002	(-4.30362705586135e+000dB,1.79877155172442e+002°)
1.01624869287070e+002	(-4.30362712540903e+000dB,1.79876871986451e+002°)
1.01859138805412e+002	(-4.30362719528161e+000dB,1.79876588147653e+002°)
1.02093948370768e+002	(-4.30362726547669e+000dB,1.79876303654542e+002°)
1.02329299228075e+002	(-4.30362733599179e+000dB,1.79876018505612e+002°)
1.02565192625141e+002	(-4.30362740683792e+000dB,1.79875732699349e+002°)
1.02801629812647e+002	(-4.30362747800989e+000dB,1.79875446234240e+002°)
1.03038612044162e+002	(-4.30362754951097e+000dB,1.79875159108764e+002°)
1.03276140576140e+002	(-4.30362762133948e+000dB,1.79874871321399e+002°)
1.03514216667934e+002	(-4.30362769349887e+000dB,1.79874582870621e+002°)
1.03752841581801e+002	(-4.30362776599520e+000dB,1.79874293754899e+002°)
1.03992016582906e+002	(-4.30362783882333e+000dB,1.79874003972701e+002°)
1.04231742939330e+002	(-4.30362791198728e+000dB,1.79873713522490e+002°)
1.04472021922080e+002	(-4.30362798549043e+000dB,1.79873422402727e+002°)
1.04712854805090e+002	(-4.30362805932945e+000dB,1.79873130611867e+002°)
1.04954242865232e+002	(-4.30362813351233e+000dB,1.79872838148365e+002°)
1.05196187382322e+002	(-4.30362820803770e+000dB,1.79872545010669e+002°)
1.05438689639126e+002	(-4.30362828290719e+000dB,1.79872251197226e+002°)
1.05681750921366e+002	(-4.30362835812101e+000dB,1.79871956706477e+002°)
1.05925372517729e+002	(-4.30362843368119e+000dB,1.79871661536861e+002°)
1.06169555719872e+002	(-4.30362850959298e+000dB,1.79871365686814e+002°)
1.06414301822431e+002	(-4.30362858585558e+000dB,1.79871069154766e+002°)
1.06659612123026e+002	(-4.30362866246555e+000dB,1.79870771939147e+002°)
1.06905487922266e+002	(-4.30362873943502e+000dB,1.79870474038379e+002°)
1.07151930523760e+002	(-4.30362881675363e+000dB,1.79870175450883e+002°)
1.07398941234124e+002	(-4.30362889443508e+000dB,1.79869876175077e+002°)
1.07646521362983e+002	(-4.30362897247198e+000dB,1.79869576209374e+002°)
1.07894672222983e+002	(-4.30362905086863e+000dB,1.79869275552183e+002°)
1.08143395129794e+002	(-4.30362912963136e+000dB,1.79868974201911e+002°)
1.08392691402120e+002	(-4.30362920875074e+000dB,1.79868672156960e+002°)
1.08642562361706e+002	(-4.30362928824029e+000dB,1.79868369415727e+002°)
1.08893009333343e+002	(-4.30362936809435e+000dB,1.79868065976610e+002°)
1.09144033644875e+002	(-4.30362944831717e+000dB,1.79867761837997e+002°)
1.09395636627209e+002	(-4.30362952891076e+000dB,1.79867456998278e+002°)
1.09647819614318e+002	(-4.30362960987606e+000dB,1.79867151455836e+002°)
1.09900583943252e+002	(-4.30362969121578e+000dB,1.79866845209050e+002°)
1.10153930954141e+002	(-4.30362977293291e+000dB,1.79866538256298e+002°)
1.10407861990207e+002	(-4.30362985502363e+000dB,1.79866230595953e+002°)
1.10662378397766e+002	(-4.30362993749487e+000dB,1.79865922226381e+002°)
1.10917481526240e+002	(-4.30363002034530e+000dB,1.79865613145950e+002°)
1.11173172728159e+002	(-4.30363010358033e+000dB,1.79865303353020e+002°)
1.11429453359173e+002	(-4.30363018719943e+000dB,1.79864992845949e+002°)
1.11686324778056e+002	(-4.30363027120282e+000dB,1.79864681623091e+002°)
1.11943788346715e+002	(-4.30363035559382e+000dB,1.79864369682795e+002°)
1.12201845430196e+002	(-4.30363044037721e+000dB,1.79864057023408e+002°)
1.12460497396692e+002	(-4.30363052554728e+000dB,1.79863743643272e+002°)
1.12719745617551e+002	(-4.30363061111403e+000dB,1.79863429540726e+002°)
1.12979591467279e+002	(-4.30363069707702e+000dB,1.79863114714104e+002°)
1.13240036323555e+002	(-4.30363078343636e+000dB,1.79862799161737e+002°)
1.13501081567231e+002	(-4.30363087019087e+000dB,1.79862482881952e+002°)
1.13762728582343e+002	(-4.30363095734833e+000dB,1.79862165873073e+002°)
1.14024978756117e+002	(-4.30363104490644e+000dB,1.79861848133419e+002°)
1.14287833478977e+002	(-4.30363113286998e+000dB,1.79861529661305e+002°)
1.14551294144553e+002	(-4.30363122124047e+000dB,1.79861210455042e+002°)
1.14815362149688e+002	(-4.30363131001519e+000dB,1.79860890512939e+002°)
1.15080038894443e+002	(-4.30363139920119e+000dB,1.79860569833299e+002°)
1.15345325782109e+002	(-4.30363148880166e+000dB,1.79860248414422e+002°)
1.15611224219209e+002	(-4.30363157881527e+000dB,1.79859926254604e+002°)
1.15877735615512e+002	(-4.30363166924116e+000dB,1.79859603352137e+002°)
1.16144861384034e+002	(-4.30363176008426e+000dB,1.79859279705308e+002°)
1.16412602941049e+002	(-4.30363185135140e+000dB,1.79858955312403e+002°)
1.16680961706096e+002	(-4.30363194303647e+000dB,1.79858630171701e+002°)
1.16949939101987e+002	(-4.30363203514656e+000dB,1.79858304281478e+002°)
1.17219536554813e+002	(-4.30363212768134e+000dB,1.79857977640007e+002°)
1.17489755493952e+002	(-4.30363222064073e+000dB,1.79857650245556e+002°)
1.17760597352080e+002	(-4.30363231403214e+000dB,1.79857322096388e+002°)
1.18032063565172e+002	(-4.30363240785475e+000dB,1.79856993190765e+002°)
1.18304155572516e+002	(-4.30363250210550e+000dB,1.79856663526943e+002°)
1.18576874816716e+002	(-4.30363259679600e+000dB,1.79856333103174e+002°)
1.18850222743701e+002	(-4.30363269192365e+000dB,1.79856001917705e+002°)
1.19124200802737e+002	(-4.30363278748748e+000dB,1.79855669968781e+002°)
1.19398810446427e+002	(-4.30363288349219e+000dB,1.79855337254643e+002°)
1.19674053130724e+002	(-4.30363297994438e+000dB,1.79855003773526e+002°)
1.19949930314937e+002	(-4.30363307683949e+000dB,1.79854669523662e+002°)
1.20226443461741e+002	(-4.30363317418313e+000dB,1.79854334503280e+002°)
1.20503594037179e+002	(-4.30363327197358e+000dB,1.79853998710602e+002°)
1.20781383510677e+002	(-4.30363337021707e+000dB,1.79853662143849e+002°)
1.21059813355048e+002	(-4.30363346891205e+000dB,1.79853324801236e+002°)
1.21338885046497e+002	(-4.30363356806449e+000dB,1.79852986680975e+002°)
1.21618600064636e+002	(-4.30363366767483e+000dB,1.79852647781274e+002°)
1.21898959892486e+002	(-4.30363376774607e+000dB,1.79852308100334e+002°)
1.22179966016487e+002	(-4.30363386827399e+000dB,1.79851967636357e+002°)
1.22461619926504e+002	(-4.30363396927169e+000dB,1.79851626387535e+002°)
1.22743923115840e+002	(-4.30363407073143e+000dB,1.79851284352061e+002°)
1.23026877081238e+002	(-4.30363417265846e+000dB,1.79850941528121e+002°)
1.23310483322890e+002	(-4.30363427506121e+000dB,1.79850597913897e+002°)
1.23594743344450e+002	(-4.30363437793483e+000dB,1.79850253507568e+002°)
1.23879658653036e+002	(-4.30363448128328e+000dB,1.79849908307308e+002°)
1.24165230759240e+002	(-4.30363458510865e+000dB,1.79849562311286e+002°)
1.24451461177138e+002	(-4.30363468941193e+000dB,1.79849215517668e+002°)
1.24738351424294e+002	(-4.30363479419746e+000dB,1.79848867924616e+002°)
1.25025903021771e+002	(-4.30363489946564e+000dB,1.79848519530287e+002°)
1.25314117494141e+002	(-4.30363500522320e+000dB,1.79848170332833e+002°)
1.25602996369487e+002	(-4.30363511146462e+000dB,1.79847820330404e+002°)
1.25892541179416e+002	(-4.30363521819468e+000dB,1.79847469521143e+002°)
1.26182753459066e+002	(-4.30363532542182e+000dB,1.79847117903191e+002°)
1.26473634747114e+002	(-4.30363543314480e+000dB,1.79846765474684e+002°)
1.26765186585784e+002	(-4.30363554136146e+000dB,1.79846412233753e+002°)
1.27057410520853e+002	(-4.30363565008127e+000dB,1.79846058178525e+002°)
1.27350308101665e+002	(-4.30363575930300e+000dB,1.79845703307124e+002°)
1.27643880881134e+002	(-4.30363586902591e+000dB,1.79845347617667e+002°)
1.27938130415752e+002	(-4.30363597925532e+000dB,1.79844991108270e+002°)
1.28233058265601e+002	(-4.30363608999383e+000dB,1.79844633777041e+002°)
1.28528665994361e+002	(-4.30363620124393e+000dB,1.79844275622087e+002°)
1.28824955169313e+002	(-4.30363631300769e+000dB,1.79843916641509e+002°)
1.29121927361353e+002	(-4.30363642528761e+000dB,1.79843556833404e+002°)
1.29419584144998e+002	(-4.30363653808569e+000dB,1.79843196195863e+002°)
1.29717927098395e+002	(-4.30363665140276e+000dB,1.79842834726976e+002°)
1.30016957803328e+002	(-4.30363676524610e+000dB,1.79842472424825e+002°)
1.30316677845229e+002	(-4.30363687961517e+000dB,1.79842109287489e+002°)
1.30617088813183e+002	(-4.30363699450702e+000dB,1.79841745313045e+002°)
1.30918192299940e+002	(-4.30363710993256e+000dB,1.79841380499561e+002°)
1.31219989901920e+002	(-4.30363722589465e+000dB,1.79841014845103e+002°)
1.31522483219223e+002	(-4.30363734238477e+000dB,1.79840648347734e+002°)
1.31825673855640e+002	(-4.30363745941375e+000dB,1.79840281005510e+002°)
1.32129563418657e+002	(-4.30363757698734e+000dB,1.79839912816484e+002°)
1.32434153519466e+002	(-4.30363769510378e+000dB,1.79839543778703e+002°)
1.32739445772973e+002	(-4.30363781375932e+000dB,1.79839173890210e+002°)
1.33045441797808e+002	(-4.30363793296734e+000dB,1.79838803149046e+002°)
1.33352143216332e+002	(-4.30363805272259e+000dB,1.79838431553245e+002°)
1.33659551654643e+002	(-4.30363817303325e+000dB,1.79838059100836e+002°)
1.33967668742593e+002	(-4.30363829389754e+000dB,1.79837685789844e+002°)
1.34276496113786e+002	(-4.30363841532008e+000dB,1.79837311618291e+002°)
1.34586035405594e+002	(-4.30363853730112e+000dB,1.79836936584193e+002°)
1.34896288259165e+002	(-4.30363865985120e+000dB,1.79836560685561e+002°)
1.35207256319427e+002	(-4.30363878296318e+000dB,1.79836183920403e+002°)
1.35518941235103e+002	(-4.30363890664304e+000dB,1.79835806286721e+002°)
1.35831344658715e+002	(-4.30363903089353e+000dB,1.79835427782513e+002°)
1.36144468246594e+002	(-4.30363915571867e+000dB,1.79835048405772e+002°)
1.36458313658892e+002	(-4.30363928111915e+000dB,1.79834668154488e+002°)
1.36772882559584e+002	(-4.30363940709983e+000dB,1.79834287026643e+002°)
1.37088176616484e+002	(-4.30363953366173e+000dB,1.79833905020218e+002°)
1.37404197501251e+002	(-4.30363966080657e+000dB,1.79833522133187e+002°)
1.37720946889394e+002	(-4.30363978853889e+000dB,1.79833138363520e+002°)
1.38038426460288e+002	(-4.30363991685914e+000dB,1.79832753709183e+002°)
1.38356637897177e+002	(-4.30364004577464e+000dB,1.79832368168136e+002°)
1.38675582887188e+002	(-4.30364017528564e+000dB,1.79831981738336e+002°)
1.38995263121334e+002	(-4.30364030539186e+000dB,1.79831594417733e+002°)
1.39315680294529e+002	(-4.30364043610053e+000dB,1.79831206204274e+002°)
1.39636836105593e+002	(-4.30364056741263e+000dB,1.79830817095901e+002°)
1.39958732257261e+002	(-4.30364069932758e+000dB,1.79830427090551e+002°)
1.40281370456195e+002	(-4.30364083185311e+000dB,1.79830036186157e+002°)
1.40604752412990e+002	(-4.30364096498996e+000dB,1.79829644380645e+002°)
1.40928879842186e+002	(-4.30364109874147e+000dB,1.79829251671940e+002°)
1.41253754462274e+002	(-4.30364123311080e+000dB,1.79828858057958e+002°)
1.41579377995707e+002	(-4.30364136810201e+000dB,1.79828463536612e+002°)
1.41905752168908e+002	(-4.30364150371296e+000dB,1.79828068105813e+002°)
1.42232878712281e+002	(-4.30364163995149e+000dB,1.79827671763462e+002°)
1.42560759360218e+002	(-4.30364177682016e+000dB,1.79827274507458e+002°)
1.42889395851109e+002	(-4.30364191432097e+000dB,1.79826876335696e+002°)
1.43218789927353e+002	(-4.30364205245070e+000dB,1.79826477246065e+002°)
1.43548943335365e+002	(-4.30364219122303e+000dB,1.79826077236448e+002°)
1.43879857825583e+002	(-4.30364233063691e+000dB,1.79825676304726e+002°)
1.44211535152486e+002	(-4.30364247069383e+000dB,1.79825274448771e+002°)
1.44543977074592e+002	(-4.30364261139226e+000dB,1.79824871666455e+002°)
1.44877185354475e+002	(-4.30364275274613e+000dB,1.79824467955641e+002°)
1.45211161758773e+002	(-4.30364289474932e+000dB,1.79824063314189e+002°)
1.45545908058195e+002	(-4.30364303741037e+000dB,1.79823657739954e+002°)
1.45881426027534e+002	(-4.30364318072722e+000dB,1.79823251230786e+002°)
1.46217717445671e+002	(-4.30364332470564e+000dB,1.79822843784530e+002°)
1.46554784095590e+002	(-4.30364346935008e+000dB,1.79822435399024e+002°)
1.46892627764385e+002	(-4.30364361466343e+000dB,1.79822026072106e+002°)
1.47231250243271e+002	(-4.30364376064067e+000dB,1.79821615801603e+002°)
1.47570653327588e+002	(-4.30364390729919e+000dB,1.79821204585341e+002°)
1.47910838816819e+002	(-4.30364405463321e+000dB,1.79820792421141e+002°)
1.48251808514594e+002	(-4.30364420264389e+000dB,1.79820379306816e+002°)
1.48593564228699e+002	(-4.30364435134355e+000dB,1.79819965240177e+002°)
1.48936107771090e+002	(-4.30364450072638e+000dB,1.79819550219028e+002°)
1.49279440957898e+002	(-4.30364465079703e+000dB,1.79819134241170e+002°)
1.49623565609442e+002	(-4.30364480155955e+000dB,1.79818717304396e+002°)
1.49968483550236e+002	(-4.30364495302347e+000dB,1.79818299406497e+002°)
1.50314196609001e+002	(-4.30364510518154e+000dB,1.79817880545257e+002°)
1.50660706618673e+002	(-4.30364525804405e+000dB,1.79817460718455e+002°)
1.51008015416413e+002	(-4.30364541161407e+000dB,1.79817039923865e+002°)
1.51356124843619e+002	(-4.30364556589110e+000dB,1.79816618159256e+002°)
1.51705036745932e+002	(-4.30364572087673e+000dB,1.79816195422394e+002°)
1.52054752973248e+002	(-4.30364587658214e+000dB,1.79815771711035e+002°)
1.52405275379728e+002	(-4.30364603300424e+000dB,1.79815347022935e+002°)
1.52756605823806e+002	(-4.30364619014896e+000dB,1.79814921355841e+002°)
1.53108746168202e+002	(-4.30364634801929e+000dB,1.79814494707497e+002°)
1.53461698279928e+002	(-4.30364650661983e+000dB,1.79814067075640e+002°)
1.53815464030302e+002	(-4.30364666594835e+000dB,1.79813638458005e+002°)
1.54170045294954e+002	(-4.30364682601675e+000dB,1.79813208852317e+002°)
1.54525443953840e+002	(-4.30364698682183e+000dB,1.79812778256300e+002°)
1.54881661891247e+002	(-4.30364714836567e+000dB,1.79812346667672e+002°)
1.55238700995807e+002	(-4.30364731066032e+000dB,1.79811914084142e+002°)
1.55596563160506e+002	(-4.30364747370211e+000dB,1.79811480503420e+002°)
1.55955250282694e+002	(-4.30364763749578e+000dB,1.79811045923205e+002°)
1.56314764264094e+002	(-4.30364780204869e+000dB,1.79810610341194e+002°)
1.56675107010813e+002	(-4.30364796735961e+000dB,1.79810173755077e+002°)
1.57036280433354e+002	(-4.30364813342972e+000dB,1.79809736162540e+002°)
1.57398286446620e+002	(-4.30364830027212e+000dB,1.79809297561263e+002°)
1.57761126969933e+002	(-4.30364846788054e+000dB,1.79808857948921e+002°)
1.58124803927037e+002	(-4.30364863626554e+000dB,1.79808417323182e+002°)
1.58489319246110e+002	(-4.30364880542786e+000dB,1.79807975681712e+002°)
1.58854674859776e+002	(-4.30364897536655e+000dB,1.79807533022168e+002°)
1.59220872705115e+002	(-4.30364914609172e+000dB,1.79807089342204e+002°)
1.59587914723672e+002	(-4.30364931760802e+000dB,1.79806644639468e+002°)
1.59955802861465e+002	(-4.30364948991053e+000dB,1.79806198911602e+002°)
1.60324539069002e+002	(-4.30364966301194e+000dB,1.79805752156242e+002°)
1.60694125301286e+002	(-4.30364983691147e+000dB,1.79805304371021e+002°)
1.61064563517825e+002	(-4.30365001161708e+000dB,1.79804855553564e+002°)
1.61435855682647e+002	(-4.30365018712675e+000dB,1.79804405701493e+002°)
1.61808003764305e+002	(-4.30365036344401e+000dB,1.79803954812421e+002°)
1.62181009735891e+002	(-4.30365054057787e+000dB,1.79803502883959e+002°)
1.62554875575047e+002	(-4.30365071852640e+000dB,1.79803049913711e+002°)
1.62929603263970e+002	(-4.30365089729974e+000dB,1.79802595899275e+002°)
1.63305194789432e+002	(-4.30365107689367e+000dB,1.79802140838245e+002°)
1.63681652142779e+002	(-4.30365125732119e+000dB,1.79801684728207e+002°)
1.64058977319952e+002	(-4.30365143858044e+000dB,1.79801227566744e+002°)
1.64437172321491e+002	(-4.30365162067926e+000dB,1.79800769351431e+002°)
1.64816239152549e+002	(-4.30365180361194e+000dB,1.79800310079841e+002°)
1.65196179822900e+002	(-4.30365198739275e+000dB,1.79799849749537e+002°)
1.65576996346951e+002	(-4.30365217202319e+000dB,1.79799388358080e+002°)
1.65958690743754e+002	(-4.30365235750504e+000dB,1.79798925903023e+002°)
1.66341265037015e+002	(-4.30365254384186e+000dB,1.79798462381915e+002°)
1.66724721255104e+002	(-4.30365273103684e+000dB,1.79797997792298e+002°)
1.67109061431069e+002	(-4.30365291909901e+000dB,1.79797532131709e+002°)
1.67494287602642e+002	(-4.30365310803017e+000dB,1.79797065397680e+002°)
1.67880401812254e+002	(-4.30365329782881e+000dB,1.79796597587735e+002°)
1.68267406107045e+002	(-4.30365348850904e+000dB,1.79796128699396e+002°)
1.68655302538872e+002	(-4.30365368006312e+000dB,1.79795658730175e+002°)
1.69044093164324e+002	(-4.30365387250740e+000dB,1.79795187677582e+002°)
1.69433780044731e+002	(-4.30365406583397e+000dB,1.79794715539120e+002°)
1.69824365246172e+002	(-4.30365426005812e+000dB,1.79794242312284e+002°)
1.70215850839493e+002	(-4.30365445517714e+000dB,1.79793767994567e+002°)
1.70608238900310e+002	(-4.30365465119588e+000dB,1.79793292583454e+002°)
1.71001531509027e+002	(-4.30365484812103e+000dB,1.79792816076424e+002°)
1.71395730750840e+002	(-4.30365504595511e+000dB,1.79792338470951e+002°)
1.71790838715757e+002	(-4.30365524469762e+000dB,1.79791859764503e+002°)
1.72186857498599e+002	(-4.30365544436321e+000dB,1.79791379954542e+002°)
1.72583789199018e+002	(-4.30365564494699e+000dB,1.79790899038525e+002°)
1.72981635921508e+002	(-4.30365584646276e+000dB,1.79790417013901e+002°)
1.73380399775412e+002	(-4.30365604890108e+000dB,1.79789933878116e+002°)
1.73780082874935e+002	(-4.30365625227595e+000dB,1.79789449628608e+002°)
1.74180687339159e+002	(-4.30365645659077e+000dB,1.79788964262810e+002°)
1.74582215292048e+002	(-4.30365666184925e+000dB,1.79788477778149e+002°)
1.74984668862463e+002	(-4.30365686805556e+000dB,1.79787990172045e+002°)
1.75388050184174e+002	(-4.30365707520915e+000dB,1.79787501441913e+002°)
1.75792361395867e+002	(-4.30365728332435e+000dB,1.79787011585163e+002°)
1.76197604641161e+002	(-4.30365749239564e+000dB,1.79786520599198e+002°)
1.76603782068614e+002	(-4.30365770243370e+000dB,1.79786028481414e+002°)
1.77010895831740e+002	(-4.30365791344267e+000dB,1.79785535229202e+002°)
1.77418948089014e+002	(-4.30365812542270e+000dB,1.79785040839948e+002°)
1.77827941003890e+002	(-4.30365833838465e+000dB,1.79784545311031e+002°)
1.78237876744807e+002	(-4.30365855232803e+000dB,1.79784048639823e+002°)
1.78648757485203e+002	(-4.30365876725846e+000dB,1.79783550823692e+002°)
1.79060585403527e+002	(-4.30365898318242e+000dB,1.79783051859997e+002°)
1.79473362683250e+002	(-4.30365920010174e+000dB,1.79782551746095e+002°)
1.79887091512876e+002	(-4.30365941801919e+000dB,1.79782050479334e+002°)
1.80301774085954e+002	(-4.30365963694612e+000dB,1.79781548057055e+002°)
1.80717412601090e+002	(-4.30365985688444e+000dB,1.79781044476597e+002°)
1.81134009261958e+002	(-4.30366007783921e+000dB,1.79780539735288e+002°)
1.81551566277311e+002	(-4.30366029981141e+000dB,1.79780033830453e+002°)
1.81970085860996e+002	(-4.30366052280701e+000dB,1.79779526759410e+002°)
1.82389570231961e+002	(-4.30366074683404e+000dB,1.79779018519471e+002°)
1.82810021614272e+002	(-4.30366097189241e+000dB,1.79778509107941e+002°)
1.83231442237119e+002	(-4.30366119799099e+000dB,1.79777998522120e+002°)
1.83653834334832e+002	(-4.30366142513281e+000dB,1.79777486759301e+002°)
1.84077200146893e+002	(-4.30366165332443e+000dB,1.79776973816770e+002°)
1.84501541917945e+002	(-4.30366188256906e+000dB,1.79776459691808e+002°)
1.84926861897805e+002	(-4.30366211287200e+000dB,1.79775944381691e+002°)
1.85353162341478e+002	(-4.30366234423612e+000dB,1.79775427883685e+002°)
1.85780445509167e+002	(-4.30366257666769e+000dB,1.79774910195053e+002°)
1.86208713666284e+002	(-4.30366281017601e+000dB,1.79774391313050e+002°)
1.86637969083464e+002	(-4.30366304475737e+000dB,1.79773871234926e+002°)
1.87068214036577e+002	(-4.30366328042828e+000dB,1.79773349957922e+002°)
1.87499450806739e+002	(-4.30366351718125e+000dB,1.79772827479276e+002°)
1.87931681680324e+002	(-4.30366375502886e+000dB,1.79772303796218e+002°)
1.88364908948977e+002	(-4.30366399397425e+000dB,1.79771778905971e+002°)
1.88799134909627e+002	(-4.30366423402194e+000dB,1.79771252805753e+002°)
