Freq.	V(vout)
1.00000000000000e+002	(4.19593824664008e+001dB,1.79889854947551e+002°)
1.00230523807790e+002	(4.19593823978291e+001dB,1.79889601037541e+002°)
1.00461579027840e+002	(4.19593823289410e+001dB,1.79889346542211e+002°)
1.00693166885180e+002	(4.19593822597352e+001dB,1.79889091460213e+002°)
1.00925288607668e+002	(4.19593821902099e+001dB,1.79888835790195e+002°)
1.01157945425990e+002	(4.19593821203634e+001dB,1.79888579530799e+002°)
1.01391138573668e+002	(4.19593820501946e+001dB,1.79888322680669e+002°)
1.01624869287070e+002	(4.19593819797019e+001dB,1.79888065238443e+002°)
1.01859138805412e+002	(4.19593819088838e+001dB,1.79887807202754e+002°)
1.02093948370768e+002	(4.19593818377390e+001dB,1.79887548572236e+002°)
1.02329299228075e+002	(4.19593817662657e+001dB,1.79887289345518e+002°)
1.02565192625141e+002	(4.19593816944623e+001dB,1.79887029521224e+002°)
1.02801629812647e+002	(4.19593816223278e+001dB,1.79886769097977e+002°)
1.03038612044162e+002	(4.19593815498603e+001dB,1.79886508074397e+002°)
1.03276140576140e+002	(4.19593814770582e+001dB,1.79886246449100e+002°)
1.03514216667934e+002	(4.19593814039201e+001dB,1.79885984220698e+002°)
1.03752841581801e+002	(4.19593813304445e+001dB,1.79885721387801e+002°)
1.03992016582906e+002	(4.19593812566297e+001dB,1.79885457949017e+002°)
1.04231742939330e+002	(4.19593811824738e+001dB,1.79885193902948e+002°)
1.04472021922080e+002	(4.19593811079765e+001dB,1.79884929248194e+002°)
1.04712854805090e+002	(4.19593810331347e+001dB,1.79884663983352e+002°)
1.04954242865232e+002	(4.19593809579473e+001dB,1.79884398107016e+002°)
1.05196187382322e+002	(4.19593808824132e+001dB,1.79884131617776e+002°)
1.05438689639126e+002	(4.19593808065302e+001dB,1.79883864514220e+002°)
1.05681750921366e+002	(4.19593807302973e+001dB,1.79883596794930e+002°)
1.05925372517729e+002	(4.19593806537123e+001dB,1.79883328458489e+002°)
1.06169555719872e+002	(4.19593805767738e+001dB,1.79883059503473e+002°)
1.06414301822431e+002	(4.19593804994799e+001dB,1.79882789928456e+002°)
1.06659612123026e+002	(4.19593804218297e+001dB,1.79882519732009e+002°)
1.06905487922266e+002	(4.19593803438208e+001dB,1.79882248912699e+002°)
1.07151930523760e+002	(4.19593802654519e+001dB,1.79881977469092e+002°)
1.07398941234124e+002	(4.19593801867213e+001dB,1.79881705399747e+002°)
1.07646521362983e+002	(4.19593801076272e+001dB,1.79881432703222e+002°)
1.07894672222983e+002	(4.19593800281684e+001dB,1.79881159378071e+002°)
1.08143395129794e+002	(4.19593799483426e+001dB,1.79880885422846e+002°)
1.08392691402120e+002	(4.19593798681480e+001dB,1.79880610836093e+002°)
1.08642562361706e+002	(4.19593797875837e+001dB,1.79880335616358e+002°)
1.08893009333343e+002	(4.19593797066473e+001dB,1.79880059762181e+002°)
1.09144033644875e+002	(4.19593796253374e+001dB,1.79879783272098e+002°)
1.09395636627209e+002	(4.19593795436522e+001dB,1.79879506144646e+002°)
1.09647819614318e+002	(4.19593794615899e+001dB,1.79879228378354e+002°)
1.09900583943252e+002	(4.19593793791487e+001dB,1.79878949971749e+002°)
1.10153930954141e+002	(4.19593792963272e+001dB,1.79878670923356e+002°)
1.10407861990207e+002	(4.19593792131232e+001dB,1.79878391231695e+002°)
1.10662378397766e+002	(4.19593791295355e+001dB,1.79878110895284e+002°)
1.10917481526240e+002	(4.19593790455616e+001dB,1.79877829912635e+002°)
1.11173172728159e+002	(4.19593789612005e+001dB,1.79877548282260e+002°)
1.11429453359173e+002	(4.19593788764497e+001dB,1.79877266002665e+002°)
1.11686324778056e+002	(4.19593787913077e+001dB,1.79876983072354e+002°)
1.11943788346715e+002	(4.19593787057726e+001dB,1.79876699489826e+002°)
1.12201845430196e+002	(4.19593786198430e+001dB,1.79876415253579e+002°)
1.12460497396692e+002	(4.19593785335166e+001dB,1.79876130362104e+002°)
1.12719745617551e+002	(4.19593784467918e+001dB,1.79875844813893e+002°)
1.12979591467279e+002	(4.19593783596667e+001dB,1.79875558607430e+002°)
1.13240036323555e+002	(4.19593782721394e+001dB,1.79875271741199e+002°)
1.13501081567231e+002	(4.19593781842082e+001dB,1.79874984213679e+002°)
1.13762728582343e+002	(4.19593780958710e+001dB,1.79874696023345e+002°)
1.14024978756117e+002	(4.19593780071260e+001dB,1.79874407168669e+002°)
1.14287833478977e+002	(4.19593779179716e+001dB,1.79874117648120e+002°)
1.14551294144553e+002	(4.19593778284055e+001dB,1.79873827460163e+002°)
1.14815362149688e+002	(4.19593777384262e+001dB,1.79873536603259e+002°)
1.15080038894443e+002	(4.19593776480311e+001dB,1.79873245075867e+002°)
1.15345325782109e+002	(4.19593775572193e+001dB,1.79872952876440e+002°)
1.15611224219209e+002	(4.19593774659881e+001dB,1.79872660003431e+002°)
1.15877735615512e+002	(4.19593773743360e+001dB,1.79872366455285e+002°)
1.16144861384034e+002	(4.19593772822606e+001dB,1.79872072230447e+002°)
1.16412602941049e+002	(4.19593771897600e+001dB,1.79871777327356e+002°)
1.16680961706096e+002	(4.19593770968328e+001dB,1.79871481744450e+002°)
1.16949939101987e+002	(4.19593770034767e+001dB,1.79871185480161e+002°)
1.17219536554813e+002	(4.19593769096893e+001dB,1.79870888532918e+002°)
1.17489755493952e+002	(4.19593768154695e+001dB,1.79870590901148e+002°)
1.17760597352080e+002	(4.19593767208145e+001dB,1.79870292583271e+002°)
1.18032063565172e+002	(4.19593766257228e+001dB,1.79869993577708e+002°)
1.18304155572516e+002	(4.19593765301921e+001dB,1.79869693882871e+002°)
1.18576874816716e+002	(4.19593764342202e+001dB,1.79869393497173e+002°)
1.18850222743701e+002	(4.19593763378055e+001dB,1.79869092419021e+002°)
1.19124200802737e+002	(4.19593762409458e+001dB,1.79868790646818e+002°)
1.19398810446427e+002	(4.19593761436390e+001dB,1.79868488178965e+002°)
1.19674053130724e+002	(4.19593760458830e+001dB,1.79868185013858e+002°)
1.19949930314937e+002	(4.19593759476760e+001dB,1.79867881149890e+002°)
1.20226443461741e+002	(4.19593758490155e+001dB,1.79867576585450e+002°)
1.20503594037179e+002	(4.19593757498994e+001dB,1.79867271318923e+002°)
1.20781383510677e+002	(4.19593756503263e+001dB,1.79866965348691e+002°)
1.21059813355048e+002	(4.19593755502933e+001dB,1.79866658673132e+002°)
1.21338885046497e+002	(4.19593754497988e+001dB,1.79866351290619e+002°)
1.21618600064636e+002	(4.19593753488401e+001dB,1.79866043199522e+002°)
1.21898959892486e+002	(4.19593752474153e+001dB,1.79865734398210e+002°)
1.22179966016487e+002	(4.19593751455225e+001dB,1.79865424885044e+002°)
1.22461619926504e+002	(4.19593750431597e+001dB,1.79865114658383e+002°)
1.22743923115840e+002	(4.19593749403240e+001dB,1.79864803716584e+002°)
1.23026877081238e+002	(4.19593748370140e+001dB,1.79864492057996e+002°)
1.23310483322890e+002	(4.19593747332270e+001dB,1.79864179680968e+002°)
1.23594743344450e+002	(4.19593746289607e+001dB,1.79863866583845e+002°)
1.23879658653036e+002	(4.19593745242136e+001dB,1.79863552764965e+002°)
1.24165230759240e+002	(4.19593744189828e+001dB,1.79863238222665e+002°)
1.24451461177138e+002	(4.19593743132662e+001dB,1.79862922955277e+002°)
1.24738351424294e+002	(4.19593742070618e+001dB,1.79862606961131e+002°)
1.25025903021771e+002	(4.19593741003670e+001dB,1.79862290238550e+002°)
1.25314117494141e+002	(4.19593739931798e+001dB,1.79861972785856e+002°)
1.25602996369487e+002	(4.19593738854975e+001dB,1.79861654601365e+002°)
1.25892541179416e+002	(4.19593737773185e+001dB,1.79861335683391e+002°)
1.26182753459066e+002	(4.19593736686403e+001dB,1.79861016030243e+002°)
1.26473634747114e+002	(4.19593735594602e+001dB,1.79860695640226e+002°)
1.26765186585784e+002	(4.19593734497765e+001dB,1.79860374511641e+002°)
1.27057410520853e+002	(4.19593733395863e+001dB,1.79860052642787e+002°)
1.27350308101665e+002	(4.19593732288877e+001dB,1.79859730031956e+002°)
1.27643880881134e+002	(4.19593731176779e+001dB,1.79859406677438e+002°)
1.27938130415752e+002	(4.19593730059548e+001dB,1.79859082577519e+002°)
1.28233058265601e+002	(4.19593728937159e+001dB,1.79858757730481e+002°)
1.28528665994361e+002	(4.19593727809590e+001dB,1.79858432134600e+002°)
1.28824955169313e+002	(4.19593726676817e+001dB,1.79858105788153e+002°)
1.29121927361353e+002	(4.19593725538818e+001dB,1.79857778689407e+002°)
1.29419584144998e+002	(4.19593724395562e+001dB,1.79857450836628e+002°)
1.29717927098395e+002	(4.19593723247030e+001dB,1.79857122228080e+002°)
1.30016957803328e+002	(4.19593722093198e+001dB,1.79856792862019e+002°)
1.30316677845229e+002	(4.19593720934040e+001dB,1.79856462736699e+002°)
1.30617088813183e+002	(4.19593719769530e+001dB,1.79856131850370e+002°)
1.30918192299940e+002	(4.19593718599646e+001dB,1.79855800201278e+002°)
1.31219989901920e+002	(4.19593717424361e+001dB,1.79855467787665e+002°)
1.31522483219223e+002	(4.19593716243655e+001dB,1.79855134607767e+002°)
1.31825673855640e+002	(4.19593715057495e+001dB,1.79854800659820e+002°)
1.32129563418657e+002	(4.19593713865863e+001dB,1.79854465942052e+002°)
1.32434153519466e+002	(4.19593712668728e+001dB,1.79854130452688e+002°)
1.32739445772973e+002	(4.19593711466069e+001dB,1.79853794189951e+002°)
1.33045441797808e+002	(4.19593710257860e+001dB,1.79853457152057e+002°)
1.33352143216332e+002	(4.19593709044071e+001dB,1.79853119337219e+002°)
1.33659551654643e+002	(4.19593707824680e+001dB,1.79852780743647e+002°)
1.33967668742593e+002	(4.19593706599662e+001dB,1.79852441369545e+002°)
1.34276496113786e+002	(4.19593705368988e+001dB,1.79852101213114e+002°)
1.34586035405594e+002	(4.19593704132635e+001dB,1.79851760272551e+002°)
1.34896288259165e+002	(4.19593702890574e+001dB,1.79851418546049e+002°)
1.35207256319427e+002	(4.19593701642781e+001dB,1.79851076031795e+002°)
1.35518941235103e+002	(4.19593700389230e+001dB,1.79850732727973e+002°)
1.35831344658715e+002	(4.19593699129891e+001dB,1.79850388632764e+002°)
1.36144468246594e+002	(4.19593697864739e+001dB,1.79850043744343e+002°)
1.36458313658892e+002	(4.19593696593749e+001dB,1.79849698060882e+002°)
1.36772882559584e+002	(4.19593695316891e+001dB,1.79849351580548e+002°)
1.37088176616484e+002	(4.19593694034138e+001dB,1.79849004301504e+002°)
1.37404197501251e+002	(4.19593692745466e+001dB,1.79848656221910e+002°)
1.37720946889394e+002	(4.19593691450845e+001dB,1.79848307339919e+002°)
1.38038426460288e+002	(4.19593690150248e+001dB,1.79847957653682e+002°)
1.38356637897177e+002	(4.19593688843650e+001dB,1.79847607161345e+002°)
1.38675582887188e+002	(4.19593687531018e+001dB,1.79847255861050e+002°)
1.38995263121334e+002	(4.19593686212331e+001dB,1.79846903750934e+002°)
1.39315680294529e+002	(4.19593684887554e+001dB,1.79846550829131e+002°)
1.39636836105593e+002	(4.19593683556662e+001dB,1.79846197093770e+002°)
1.39958732257261e+002	(4.19593682219629e+001dB,1.79845842542974e+002°)
1.40281370456195e+002	(4.19593680876424e+001dB,1.79845487174866e+002°)
1.40604752412990e+002	(4.19593679527019e+001dB,1.79845130987560e+002°)
1.40928879842186e+002	(4.19593678171385e+001dB,1.79844773979168e+002°)
1.41253754462274e+002	(4.19593676809494e+001dB,1.79844416147798e+002°)
1.41579377995707e+002	(4.19593675441319e+001dB,1.79844057491551e+002°)
1.41905752168908e+002	(4.19593674066824e+001dB,1.79843698008528e+002°)
1.42232878712281e+002	(4.19593672685986e+001dB,1.79843337696822e+002°)
1.42560759360218e+002	(4.19593671298777e+001dB,1.79842976554522e+002°)
1.42889395851109e+002	(4.19593669905164e+001dB,1.79842614579715e+002°)
1.43218789927353e+002	(4.19593668505117e+001dB,1.79842251770481e+002°)
1.43548943335365e+002	(4.19593667098610e+001dB,1.79841888124897e+002°)
1.43879857825583e+002	(4.19593665685612e+001dB,1.79841523641034e+002°)
1.44211535152486e+002	(4.19593664266089e+001dB,1.79841158316960e+002°)
1.44543977074592e+002	(4.19593662840013e+001dB,1.79840792150740e+002°)
1.44877185354475e+002	(4.19593661407355e+001dB,1.79840425140430e+002°)
1.45211161758773e+002	(4.19593659968086e+001dB,1.79840057284086e+002°)
1.45545908058195e+002	(4.19593658522173e+001dB,1.79839688579757e+002°)
1.45881426027534e+002	(4.19593657069583e+001dB,1.79839319025489e+002°)
1.46217717445671e+002	(4.19593655610295e+001dB,1.79838948619323e+002°)
1.46554784095590e+002	(4.19593654144266e+001dB,1.79838577359293e+002°)
1.46892627764385e+002	(4.19593652671472e+001dB,1.79838205243434e+002°)
1.47231250243271e+002	(4.19593651191878e+001dB,1.79837832269770e+002°)
1.47570653327588e+002	(4.19593649705458e+001dB,1.79837458436326e+002°)
1.47910838816819e+002	(4.19593648212177e+001dB,1.79837083741120e+002°)
1.48251808514594e+002	(4.19593646712001e+001dB,1.79836708182164e+002°)
1.48593564228699e+002	(4.19593645204900e+001dB,1.79836331757467e+002°)
1.48936107771090e+002	(4.19593643690846e+001dB,1.79835954465035e+002°)
1.49279440957898e+002	(4.19593642169800e+001dB,1.79835576302867e+002°)
1.49623565609442e+002	(4.19593640641732e+001dB,1.79835197268958e+002°)
1.49968483550236e+002	(4.19593639106615e+001dB,1.79834817361298e+002°)
1.50314196609001e+002	(4.19593637564409e+001dB,1.79834436577873e+002°)
1.50660706618673e+002	(4.19593636015087e+001dB,1.79834054916665e+002°)
1.51008015416413e+002	(4.19593634458612e+001dB,1.79833672375650e+002°)
1.51356124843619e+002	(4.19593632894955e+001dB,1.79833288952801e+002°)
1.51705036745932e+002	(4.19593631324079e+001dB,1.79832904646084e+002°)
1.52054752973248e+002	(4.19593629745952e+001dB,1.79832519453461e+002°)
1.52405275379728e+002	(4.19593628160540e+001dB,1.79832133372892e+002°)
1.52756605823806e+002	(4.19593626567811e+001dB,1.79831746402328e+002°)
1.53108746168202e+002	(4.19593624967731e+001dB,1.79831358539719e+002°)
1.53461698279928e+002	(4.19593623360266e+001dB,1.79830969783008e+002°)
1.53815464030302e+002	(4.19593621745378e+001dB,1.79830580130135e+002°)
1.54170045294954e+002	(4.19593620123041e+001dB,1.79830189579032e+002°)
1.54525443953840e+002	(4.19593618493211e+001dB,1.79829798127631e+002°)
1.54881661891247e+002	(4.19593616855861e+001dB,1.79829405773854e+002°)
1.55238700995807e+002	(4.19593615210951e+001dB,1.79829012515624e+002°)
1.55596563160506e+002	(4.19593613558451e+001dB,1.79828618350854e+002°)
1.55955250282694e+002	(4.19593611898324e+001dB,1.79828223277454e+002°)
1.56314764264094e+002	(4.19593610230532e+001dB,1.79827827293331e+002°)
1.56675107010813e+002	(4.19593608555042e+001dB,1.79827430396385e+002°)
1.57036280433354e+002	(4.19593606871819e+001dB,1.79827032584512e+002°)
1.57398286446620e+002	(4.19593605180823e+001dB,1.79826633855603e+002°)
1.57761126969933e+002	(4.19593603482029e+001dB,1.79826234207544e+002°)
1.58124803927037e+002	(4.19593601775390e+001dB,1.79825833638215e+002°)
1.58489319246110e+002	(4.19593600060873e+001dB,1.79825432145495e+002°)
1.58854674859776e+002	(4.19593598338445e+001dB,1.79825029727253e+002°)
1.59220872705115e+002	(4.19593596608065e+001dB,1.79824626381357e+002°)
1.59587914723672e+002	(4.19593594869697e+001dB,1.79824222105668e+002°)
1.59955802861465e+002	(4.19593593123305e+001dB,1.79823816898043e+002°)
1.60324539069002e+002	(4.19593591368853e+001dB,1.79823410756334e+002°)
1.60694125301286e+002	(4.19593589606302e+001dB,1.79823003678387e+002°)
1.61064563517825e+002	(4.19593587835618e+001dB,1.79822595662045e+002°)
1.61435855682647e+002	(4.19593586056757e+001dB,1.79822186705143e+002°)
1.61808003764305e+002	(4.19593584269689e+001dB,1.79821776805515e+002°)
1.62181009735891e+002	(4.19593582474370e+001dB,1.79821365960987e+002°)
1.62554875575047e+002	(4.19593580670767e+001dB,1.79820954169382e+002°)
1.62929603263970e+002	(4.19593578858836e+001dB,1.79820541428514e+002°)
1.63305194789432e+002	(4.19593577038545e+001dB,1.79820127736198e+002°)
1.63681652142779e+002	(4.19593575209848e+001dB,1.79819713090239e+002°)
1.64058977319952e+002	(4.19593573372710e+001dB,1.79819297488439e+002°)
1.64437172321491e+002	(4.19593571527094e+001dB,1.79818880928595e+002°)
1.64816239152549e+002	(4.19593569672959e+001dB,1.79818463408499e+002°)
1.65196179822900e+002	(4.19593567810269e+001dB,1.79818044925936e+002°)
1.65576996346951e+002	(4.19593565938979e+001dB,1.79817625478689e+002°)
1.65958690743754e+002	(4.19593564059049e+001dB,1.79817205064534e+002°)
1.66341265037015e+002	(4.19593562170444e+001dB,1.79816783681241e+002°)
1.66724721255104e+002	(4.19593560273121e+001dB,1.79816361326578e+002°)
1.67109061431069e+002	(4.19593558367038e+001dB,1.79815937998304e+002°)
1.67494287602642e+002	(4.19593556452160e+001dB,1.79815513694175e+002°)
1.67880401812254e+002	(4.19593554528446e+001dB,1.79815088411943e+002°)
1.68267406107045e+002	(4.19593552595850e+001dB,1.79814662149352e+002°)
1.68655302538872e+002	(4.19593550654332e+001dB,1.79814234904143e+002°)
1.69044093164324e+002	(4.19593548703854e+001dB,1.79813806674050e+002°)
1.69433780044731e+002	(4.19593546744374e+001dB,1.79813377456803e+002°)
1.69824365246172e+002	(4.19593544775849e+001dB,1.79812947250127e+002°)
1.70215850839493e+002	(4.19593542798237e+001dB,1.79812516051742e+002°)
1.70608238900310e+002	(4.19593540811498e+001dB,1.79812083859360e+002°)
1.71001531509027e+002	(4.19593538815586e+001dB,1.79811650670691e+002°)
1.71395730750840e+002	(4.19593536810463e+001dB,1.79811216483438e+002°)
1.71790838715757e+002	(4.19593534796087e+001dB,1.79810781295299e+002°)
1.72186857498599e+002	(4.19593532772412e+001dB,1.79810345103968e+002°)
1.72583789199018e+002	(4.19593530739395e+001dB,1.79809907907132e+002°)
1.72981635921508e+002	(4.19593528696996e+001dB,1.79809469702472e+002°)
1.73380399775412e+002	(4.19593526645165e+001dB,1.79809030487667e+002°)
1.73780082874935e+002	(4.19593524583866e+001dB,1.79808590260386e+002°)
1.74180687339159e+002	(4.19593522513053e+001dB,1.79808149018298e+002°)
1.74582215292048e+002	(4.19593520432683e+001dB,1.79807706759061e+002°)
1.74984668862463e+002	(4.19593518342711e+001dB,1.79807263480332e+002°)
1.75388050184174e+002	(4.19593516243090e+001dB,1.79806819179761e+002°)
1.75792361395867e+002	(4.19593514133777e+001dB,1.79806373854992e+002°)
1.76197604641161e+002	(4.19593512014729e+001dB,1.79805927503664e+002°)
1.76603782068614e+002	(4.19593509885903e+001dB,1.79805480123411e+002°)
1.77010895831740e+002	(4.19593507747246e+001dB,1.79805031711861e+002°)
1.77418948089014e+002	(4.19593505598721e+001dB,1.79804582266637e+002°)
1.77827941003890e+002	(4.19593503440276e+001dB,1.79804131785356e+002°)
1.78237876744807e+002	(4.19593501271870e+001dB,1.79803680265631e+002°)
1.78648757485203e+002	(4.19593499093457e+001dB,1.79803227705067e+002°)
1.79060585403527e+002	(4.19593496904989e+001dB,1.79802774101264e+002°)
1.79473362683250e+002	(4.19593494706416e+001dB,1.79802319451820e+002°)
1.79887091512876e+002	(4.19593492497697e+001dB,1.79801863754322e+002°)
1.80301774085954e+002	(4.19593490278781e+001dB,1.79801407006355e+002°)
1.80717412601090e+002	(4.19593488049627e+001dB,1.79800949205498e+002°)
1.81134009261958e+002	(4.19593485810183e+001dB,1.79800490349324e+002°)
1.81551566277311e+002	(4.19593483560400e+001dB,1.79800030435400e+002°)
1.81970085860996e+002	(4.19593481300232e+001dB,1.79799569461288e+002°)
1.82389570231961e+002	(4.19593479029633e+001dB,1.79799107424543e+002°)
1.82810021614272e+002	(4.19593476748555e+001dB,1.79798644322718e+002°)
1.83231442237119e+002	(4.19593474456945e+001dB,1.79798180153356e+002°)
1.83653834334832e+002	(4.19593472154760e+001dB,1.79797714913997e+002°)
1.84077200146893e+002	(4.19593469841949e+001dB,1.79797248602174e+002°)
1.84501541917945e+002	(4.19593467518462e+001dB,1.79796781215415e+002°)
1.84926861897805e+002	(4.19593465184253e+001dB,1.79796312751243e+002°)
1.85353162341478e+002	(4.19593462839265e+001dB,1.79795843207174e+002°)
1.85780445509167e+002	(4.19593460483456e+001dB,1.79795372580718e+002°)
1.86208713666284e+002	(4.19593458116770e+001dB,1.79794900869381e+002°)
1.86637969083464e+002	(4.19593455739162e+001dB,1.79794428070662e+002°)
1.87068214036577e+002	(4.19593453350584e+001dB,1.79793954182054e+002°)
1.87499450806739e+002	(4.19593450950975e+001dB,1.79793479201045e+002°)
1.87931681680324e+002	(4.19593448540293e+001dB,1.79793003125118e+002°)
1.88364908948977e+002	(4.19593446118482e+001dB,1.79792525951747e+002°)
1.88799134909627e+002	(4.19593443685494e+001dB,1.79792047678404e+002°)
1.89234361864495e+002	(4.19593441241274e+001dB,1.79791568302553e+002°)
1.89670592121112e+002	(4.19593438785775e+001dB,1.79791087821653e+002°)
1.90107827992327e+002	(4.19593436318941e+001dB,1.79790606233155e+002°)
1.90546071796322e+002	(4.19593433840722e+001dB,1.79790123534509e+002°)
