Freq.	V(N002,N003)
1.00000000000000e+000	(-7.89476057496324e-008dB,-8.37000535369365e-003°)
1.00230523807790e+000	(-7.93120096733232e-008dB,-8.38930020853298e-003°)
1.00461579027840e+000	(-7.96780982771288e-008dB,-8.40863954260490e-003°)
1.00693166885180e+000	(-8.00458763826868e-008dB,-8.42802345844463e-003°)
1.00925288607668e+000	(-8.04153497759623e-008dB,-8.44745205882375e-003°)
1.01157945425990e+000	(-8.07865300288852e-008dB,-8.46692544675075e-003°)
1.01391138573668e+000	(-8.11594258204030e-008dB,-8.48644372547157e-003°)
1.01624869287070e+000	(-8.15340390791708e-008dB,-8.50600699847018e-003°)
1.01859138805412e+000	(-8.19103823414461e-008dB,-8.52561536946909e-003°)
1.02093948370768e+000	(-8.22884652505038e-008dB,-8.54526894242991e-003°)
1.02329299228075e+000	(-8.26682926279816e-008dB,-8.56496782155392e-003°)
1.02565192625141e+000	(-8.30498702598445e-008dB,-8.58471211128260e-003°)
1.02801629812647e+000	(-8.34332106823500e-008dB,-8.60450191629819e-003°)
1.03038612044162e+000	(-8.38183216101181e-008dB,-8.62433734152425e-003°)
1.03276140576140e+000	(-8.42052088291139e-008dB,-8.64421849212622e-003°)
1.03514216667934e+000	(-8.45938829469398e-008dB,-8.66414547351197e-003°)
1.03752841581801e+000	(-8.49843507138884e-008dB,-8.68411839133235e-003°)
1.03992016582906e+000	(-8.53766198445799e-008dB,-8.70413735148177e-003°)
1.04231742939330e+000	(-8.57707009466166e-008dB,-8.72420246009874e-003°)
1.04472021922080e+000	(-8.61666017346186e-008dB,-8.74431382356647e-003°)
1.04712854805090e+000	(-8.65643279945510e-008dB,-8.76447154851338e-003°)
1.04954242865232e+000	(-8.69638893696889e-008dB,-8.78467574181371e-003°)
1.05196187382322e+000	(-8.73652983962897e-008dB,-8.80492651058806e-003°)
1.05438689639126e+000	(-8.77685579673360e-008dB,-8.82522396220398e-003°)
1.05681750921366e+000	(-8.81736796547579e-008dB,-8.84556820427652e-003°)
1.05925372517729e+000	(-8.85806702088478e-008dB,-8.86595934466881e-003°)
1.06169555719872e+000	(-8.89895412015359e-008dB,-8.88639749149264e-003°)
1.06414301822431e+000	(-8.94002984187873e-008dB,-8.90688275310900e-003°)
1.06659612123026e+000	(-8.98129495752220e-008dB,-8.92741523812869e-003°)
1.06905487922266e+000	(-9.02275081714249e-008dB,-8.94799505541290e-003°)
1.07151930523761e+000	(-9.06439780647063e-008dB,-8.96862231407375e-003°)
1.07398941234124e+000	(-9.10623727556510e-008dB,-8.98929712347489e-003°)
1.07646521362983e+000	(-9.14826961015694e-008dB,-9.01001959323208e-003°)
1.07894672222983e+000	(-9.19049606387187e-008dB,-9.03078983321379e-003°)
1.08143395129794e+000	(-9.23291760103742e-008dB,-9.05160795354175e-003°)
1.08392691402120e+000	(-9.27553480025009e-008dB,-9.07247406459152e-003°)
1.08642562361706e+000	(-9.31834881870289e-008dB,-9.09338827699315e-003°)
1.08893009333343e+000	(-9.36136033142508e-008dB,-9.11435070163168e-003°)
1.09144033644876e+000	(-9.40457049560966e-008dB,-9.13536144964779e-003°)
1.09395636627209e+000	(-9.44797998628590e-008dB,-9.15642063243835e-003°)
1.09647819614318e+000	(-9.49158986421404e-008dB,-9.17752836165705e-003°)
1.09900583943252e+000	(-9.53540099728885e-008dB,-9.19868474921493e-003°)
1.10153930954141e+000	(-9.57941425340509e-008dB,-9.21988990728105e-003°)
1.10407861990207e+000	(-9.62363098262126e-008dB,-9.24114394828301e-003°)
1.10662378397766e+000	(-9.66805157066837e-008dB,-9.26244698490762e-003°)
1.10917481526240e+000	(-9.71267746403768e-008dB,-9.28379913010142e-003°)
1.11173172728159e+000	(-9.75750895202747e-008dB,-9.30520049707136e-003°)
1.11429453359173e+000	(-9.80254767399447e-008dB,-9.32665119928534e-003°)
1.11686324778056e+000	(-9.84779411210245e-008dB,-9.34815135047281e-003°)
1.11943788346715e+000	(-9.89324951997718e-008dB,-9.36970106462543e-003°)
1.12201845430196e+000	(-9.93891466908066e-008dB,-9.39130045599761e-003°)
1.12460497396692e+000	(-9.98479052374040e-008dB,-9.41294963910716e-003°)
1.12719745617551e+000	(-1.00308781447167e-007dB,-9.43464872873587e-003°)
1.12979591467280e+000	(-1.00771787856352e-007dB,-9.45639783993014e-003°)
1.13240036323556e+000	(-1.01236929286598e-007dB,-9.47819708800157e-003°)
1.13501081567231e+000	(-1.01704217309835e-007dB,-9.50004658852758e-003°)
1.13762728582343e+000	(-1.02173661569337e-007dB,-9.52194645735203e-003°)
1.14024978756117e+000	(-1.02645276530017e-007dB,-9.54389681058582e-003°)
1.14287833478977e+000	(-1.03119065084859e-007dB,-9.56589776460752e-003°)
1.14551294144553e+000	(-1.03595040734447e-007dB,-9.58794943606398e-003°)
1.14815362149688e+000	(-1.04073214086383e-007dB,-9.61005194187095e-003°)
1.15080038894443e+000	(-1.04553592855288e-007dB,-9.63220539921369e-003°)
1.15345325782109e+000	(-1.05036191506075e-007dB,-9.65440992554760e-003°)
1.15611224219210e+000	(-1.05521016789035e-007dB,-9.67666563859886e-003°)
1.15877735615512e+000	(-1.06008079311773e-007dB,-9.69897265636502e-003°)
1.16144861384034e+000	(-1.06497389681890e-007dB,-9.72133109711564e-003°)
1.16412602941049e+000	(-1.06988959471316e-007dB,-9.74374107939293e-003°)
1.16680961706096e+000	(-1.07482798323327e-007dB,-9.76620272201236e-003°)
1.16949939101987e+000	(-1.07978914916871e-007dB,-9.78871614406332e-003°)
1.17219536554813e+000	(-1.08477323716859e-007dB,-9.81128146490968e-003°)
1.17489755493953e+000	(-1.08978032437913e-007dB,-9.83389880419053e-003°)
1.17760597352080e+000	(-1.09481051687635e-007dB,-9.85656828182071e-003°)
1.18032063565173e+000	(-1.09986394002282e-007dB,-9.87929001799153e-003°)
1.18304155572516e+000	(-1.10494068060802e-007dB,-9.90206413317134e-003°)
1.18576874816716e+000	(-1.11004084470798e-007dB,-9.92489074810621e-003°)
1.18850222743702e+000	(-1.11516456732855e-007dB,-9.94776998382056e-003°)
1.19124200802737e+000	(-1.12031192561593e-007dB,-9.97070196161780e-003°)
1.19398810446427e+000	(-1.12548305457598e-007dB,-9.99368680308096e-003°)
1.19674053130724e+000	(-1.13067805064144e-007dB,-1.00167246300734e-002°)
1.19949930314938e+000	(-1.13589702953162e-007dB,-1.00398155647393e-002°)
1.20226443461741e+000	(-1.14114008767927e-007dB,-1.00629597295045e-002°)
1.20503594037179e+000	(-1.14640735044696e-007dB,-1.00861572470770e-002°)
1.20781383510678e+000	(-1.15169894319728e-007dB,-1.01094082404478e-002°)
1.21059813355048e+000	(-1.15701493343315e-007dB,-1.01327128328912e-002°)
1.21338885046497e+000	(-1.16235547544697e-007dB,-1.01560711479659e-002°)
1.21618600064636e+000	(-1.16772064638495e-007dB,-1.01794833095153e-002°)
1.21898959892486e+000	(-1.17311060053949e-007dB,-1.02029494416684e-002°)
1.22179966016487e+000	(-1.17852543434333e-007dB,-1.02264696688402e-002°)
1.22461619926504e+000	(-1.18396526351578e-007dB,-1.02500441157325e-002°)
1.22743923115840e+000	(-1.18943019413288e-007dB,-1.02736729073348e-002°)
1.23026877081238e+000	(-1.19492036120046e-007dB,-1.02973561689245e-002°)
1.23310483322890e+000	(-1.20043587079456e-007dB,-1.03210940260679e-002°)
1.23594743344451e+000	(-1.20597682899121e-007dB,-1.03448866046207e-002°)
1.23879658653036e+000	(-1.21154338043953e-007dB,-1.03687340307287e-002°)
1.24165230759241e+000	(-1.21713558299918e-007dB,-1.03926364308287e-002°)
1.24451461177138e+000	(-1.22275362953565e-007dB,-1.04165939316487e-002°)
1.24738351424294e+000	(-1.22839759719516e-007dB,-1.04406066602090e-002°)
1.25025903021771e+000	(-1.23406762098355e-007dB,-1.04646747438227e-002°)
1.25314117494141e+000	(-1.23976382626340e-007dB,-1.04887983100963e-002°)
1.25602996369487e+000	(-1.24548630946746e-007dB,-1.05129774869306e-002°)
1.25892541179416e+000	(-1.25123523453142e-007dB,-1.05372124025210e-002°)
1.26182753459066e+000	(-1.25701064967164e-007dB,-1.05615031853588e-002°)
1.26473634747115e+000	(-1.26281274775364e-007dB,-1.05858499642311e-002°)
1.26765186585784e+000	(-1.26864164449671e-007dB,-1.06102528682222e-002°)
1.27057410520854e+000	(-1.27449741704706e-007dB,-1.06347120267138e-002°)
1.27350308101666e+000	(-1.28038022934036e-007dB,-1.06592275693858e-002°)
1.27643880881134e+000	(-1.28629018745265e-007dB,-1.06837996262173e-002°)
1.27938130415752e+000	(-1.29222743603305e-007dB,-1.07084283274868e-002°)
1.28233058265602e+000	(-1.29819210044414e-007dB,-1.07331138037731e-002°)
1.28528665994361e+000	(-1.30418426747540e-007dB,-1.07578561859563e-002°)
1.28824955169313e+000	(-1.31020412999233e-007dB,-1.07826556052178e-002°)
1.29121927361353e+000	(-1.31625174585458e-007dB,-1.08075121930418e-002°)
1.29419584144998e+000	(-1.32232728864111e-007dB,-1.08324260812154e-002°)
1.29717927098395e+000	(-1.32843087407123e-007dB,-1.08573974018295e-002°)
1.30016957803328e+000	(-1.33456263715077e-007dB,-1.08824262872794e-002°)
1.30316677845229e+000	(-1.34072270324234e-007dB,-1.09075128702660e-002°)
1.30617088813183e+000	(-1.34691118806521e-007dB,-1.09326572837956e-002°)
1.30918192299940e+000	(-1.35312825555508e-007dB,-1.09578596611814e-002°)
1.31219989901920e+000	(-1.35937401178798e-007dB,-1.09831201360439e-002°)
1.31522483219223e+000	(-1.36564859176975e-007dB,-1.10084388423116e-002°)
1.31825673855640e+000	(-1.37195212086299e-007dB,-1.10338159142217e-002°)
1.32129563418657e+000	(-1.37828477264662e-007dB,-1.10592514863210e-002°)
1.32434153519466e+000	(-1.38464664355343e-007dB,-1.10847456934661e-002°)
1.32739445772973e+000	(-1.39103789751907e-007dB,-1.11102986708249e-002°)
1.33045441797808e+000	(-1.39745864061959e-007dB,-1.11359105538767e-002°)
1.33352143216332e+000	(-1.40390900786084e-007dB,-1.11615814784130e-002°)
1.33659551654643e+000	(-1.41038916317849e-007dB,-1.11873115805386e-002°)
1.33967668742593e+000	(-1.41689921264857e-007dB,-1.12131009966719e-002°)
1.34276496113786e+000	(-1.42343934913659e-007dB,-1.12389498635456e-002°)
1.34586035405594e+000	(-1.43000962085893e-007dB,-1.12648583182080e-002°)
1.34896288259164e+000	(-1.43661024961091e-007dB,-1.12908264980230e-002°)
1.35207256319427e+000	(-1.44324134146857e-007dB,-1.13168545406713e-002°)
1.35518941235103e+000	(-1.44990303143776e-007dB,-1.13429425841510e-002°)
1.35831344658715e+000	(-1.45659549309744e-007dB,-1.13690907667782e-002°)
1.36144468246594e+000	(-1.46331883252363e-007dB,-1.13952992271880e-002°)
1.36458313658892e+000	(-1.47007320400874e-007dB,-1.14215681043350e-002°)
1.36772882559584e+000	(-1.47685875220190e-007dB,-1.14478975374941e-002°)
1.37088176616484e+000	(-1.48367563139552e-007dB,-1.14742876662613e-002°)
1.37404197501251e+000	(-1.49052395730889e-007dB,-1.15007386305544e-002°)
1.37720946889394e+000	(-1.49740389387770e-007dB,-1.15272505706137e-002°)
1.38038426460288e+000	(-1.50431558575108e-007dB,-1.15538236270030e-002°)
1.38356637897177e+000	(-1.51125921615125e-007dB,-1.15804579406098e-002°)
1.38675582887188e+000	(-1.51823486222444e-007dB,-1.16071536526466e-002°)
1.38995263121334e+000	(-1.52524272647940e-007dB,-1.16339109046514e-002°)
1.39315680294529e+000	(-1.53228292463545e-007dB,-1.16607298384884e-002°)
1.39636836105593e+000	(-1.53935563027155e-007dB,-1.16876105963489e-002°)
1.39958732257261e+000	(-1.54646095910700e-007dB,-1.17145533207520e-002°)
1.40281370456195e+000	(-1.55359909436403e-007dB,-1.17415581545452e-002°)
1.40604752412990e+000	(-1.56077017104850e-007dB,-1.17686252409055e-002°)
1.40928879842186e+000	(-1.56797437238263e-007dB,-1.17957547233399e-002°)
1.41253754462274e+000	(-1.57521180444245e-007dB,-1.18229467456861e-002°)
1.41579377995707e+000	(-1.58248264080694e-007dB,-1.18502014521134e-002°)
1.41905752168908e+000	(-1.58978707434158e-007dB,-1.18775189871236e-002°)
1.42232878712281e+000	(-1.59712521112241e-007dB,-1.19048994955515e-002°)
1.42560759360218e+000	(-1.60449719579856e-007dB,-1.19323431225658e-002°)
1.42889395851109e+000	(-1.61190322123554e-007dB,-1.19598500136698e-002°)
1.43218789927353e+000	(-1.61934341279592e-007dB,-1.19874203147023e-002°)
1.43548943335364e+000	(-1.62681798263177e-007dB,-1.20150541718382e-002°)
1.43879857825583e+000	(-1.63432703681912e-007dB,-1.20427517315894e-002°)
1.44211535152486e+000	(-1.64187073929364e-007dB,-1.20705131408057e-002°)
1.44543977074592e+000	(-1.64944925399102e-007dB,-1.20983385466751e-002°)
1.44877185354475e+000	(-1.65706277377677e-007dB,-1.21262280967253e-002°)
1.45211161758773e+000	(-1.66471144330001e-007dB,-1.21541819388237e-002°)
1.45545908058195e+000	(-1.67239538792334e-007dB,-1.21822002211788e-002°)
1.45881426027534e+000	(-1.68011481015552e-007dB,-1.22102830923408e-002°)
1.46217717445671e+000	(-1.68786987393225e-007dB,-1.22384307012020e-002°)
1.46554784095590e+000	(-1.69566073354592e-007dB,-1.22666431969985e-002°)
1.46892627764385e+000	(-1.70348754328896e-007dB,-1.22949207293099e-002°)
1.47231250243271e+000	(-1.71135048638358e-007dB,-1.23232634480608e-002°)
1.47570653327588e+000	(-1.71924969783565e-007dB,-1.23516715035215e-002°)
1.47910838816819e+000	(-1.72718539944049e-007dB,-1.23801450463087e-002°)
1.48251808514594e+000	(-1.73515773584725e-007dB,-1.24086842273861e-002°)
1.48593564228699e+000	(-1.74316685170505e-007dB,-1.24372891980657e-002°)
1.48936107771090e+000	(-1.75121295916596e-007dB,-1.24659601100080e-002°)
1.49279440957898e+000	(-1.75929618359255e-007dB,-1.24946971152234e-002°)
1.49623565609442e+000	(-1.76741670820705e-007dB,-1.25235003660726e-002°)
1.49968483550236e+000	(-1.77557475480481e-007dB,-1.25523700152674e-002°)
1.50314196609001e+000	(-1.78377041981857e-007dB,-1.25813062158719e-002°)
1.50660706618673e+000	(-1.79200393468695e-007dB,-1.26103091213029e-002°)
1.51008015416413e+000	(-1.80027547298891e-007dB,-1.26393788853308e-002°)
1.51356124843619e+000	(-1.80858515044375e-007dB,-1.26685156620805e-002°)
1.51705036745932e+000	(-1.81693319849008e-007dB,-1.26977196060324e-002°)
1.52054752973248e+000	(-1.82531978106359e-007dB,-1.27269908720227e-002°)
1.52405275379728e+000	(-1.83374506209995e-007dB,-1.27563296152448e-002°)
1.52756605823806e+000	(-1.84220926339451e-007dB,-1.27857359912498e-002°)
1.53108746168202e+000	(-1.85071251995313e-007dB,-1.28152101559471e-002°)
1.53461698279928e+000	(-1.85925500535475e-007dB,-1.28447522656060e-002°)
1.53815464030302e+000	(-1.86783693175144e-007dB,-1.28743624768556e-002°)
1.54170045294954e+000	(-1.87645848236544e-007dB,-1.29040409466863e-002°)
1.54525443953840e+000	(-1.88511983077570e-007dB,-1.29337878324503e-002°)
1.54881661891247e+000	(-1.89382116020446e-007dB,-1.29636032918627e-002°)
1.55238700995807e+000	(-1.90256261530086e-007dB,-1.29934874830019e-002°)
1.55596563160506e+000	(-1.91134443714677e-007dB,-1.30234405643110e-002°)
1.55955250282694e+000	(-1.92016681860771e-007dB,-1.30534626945981e-002°)
1.56314764264094e+000	(-1.92902988504627e-007dB,-1.30835540330375e-002°)
1.56675107010813e+000	(-1.93793388718759e-007dB,-1.31137147391704e-002°)
1.57036280433354e+000	(-1.94687898896738e-007dB,-1.31439449729060e-002°)
1.57398286446620e+000	(-1.95586539289441e-007dB,-1.31742448945217e-002°)
1.57761126969933e+000	(-1.96489325326109e-007dB,-1.32046146646647e-002°)
1.58124803927037e+000	(-1.97396279186277e-007dB,-1.32350544443525e-002°)
1.58489319246110e+000	(-1.98307419192167e-007dB,-1.32655643949737e-002°)
1.58854674859776e+000	(-1.99222762701675e-007dB,-1.32961446782890e-002°)
1.59220872705115e+000	(-2.00142333822991e-007dB,-1.33267954564318e-002°)
1.59587914723672e+000	(-2.01066148949683e-007dB,-1.33575168919096e-002°)
1.59955802861465e+000	(-2.01994229296957e-007dB,-1.33883091476043e-002°)
1.60324539069002e+000	(-2.02926591258381e-007dB,-1.34191723867733e-002°)
1.60694125301286e+000	(-2.03863257013490e-007dB,-1.34501067730503e-002°)
1.61064563517825e+000	(-2.04804248741817e-007dB,-1.34811124704464e-002°)
1.61435855682647e+000	(-2.05749580908276e-007dB,-1.35121896433506e-002°)
1.61808003764305e+000	(-2.06699278585382e-007dB,-1.35433384565309e-002°)
1.62181009735891e+000	(-2.07653358166705e-007dB,-1.35745590751352e-002°)
1.62554875575047e+000	(-2.08611841831778e-007dB,-1.36058516646920e-002°)
1.62929603263970e+000	(-2.09574750795808e-007dB,-1.36372163911115e-002°)
1.63305194789432e+000	(-2.10542104345346e-007dB,-1.36686534206863e-002°)
1.63681652142779e+000	(-2.11513922731270e-007dB,-1.37001629200923e-002°)
1.64058977319952e+000	(-2.12490228133115e-007dB,-1.37317450563896e-002°)
1.64437172321491e+000	(-2.13471036944449e-007dB,-1.37633999970236e-002°)
1.64816239152549e+000	(-2.14456374237788e-007dB,-1.37951279098256e-002°)
1.65196179822900e+000	(-2.15446261228339e-007dB,-1.38269289630136e-002°)
1.65576996346951e+000	(-2.16440715273999e-007dB,-1.38588033251938e-002°)
1.65958690743754e+000	(-2.17439758554300e-007dB,-1.38907511653607e-002°)
1.66341265037015e+000	(-2.18443416141760e-007dB,-1.39227726528985e-002°)
1.66724721255104e+000	(-2.19451705394275e-007dB,-1.39548679575818e-002°)
1.67109061431069e+000	(-2.20464648491378e-007dB,-1.39870372495769e-002°)
1.67494287602642e+000	(-2.21482266648277e-007dB,-1.40192806994418e-002°)
1.67880401812254e+000	(-2.22504582044505e-007dB,-1.40515984781283e-002°)
1.68267406107045e+000	(-2.23531616859596e-007dB,-1.40839907569818e-002°)
1.68655302538872e+000	(-2.24563392308756e-007dB,-1.41164577077429e-002°)
1.69044093164324e+000	(-2.25599929607193e-007dB,-1.41489995025481e-002°)
1.69433780044731e+000	(-2.26641250934439e-007dB,-1.41816163139307e-002°)
1.69824365246172e+000	(-2.27687379434358e-007dB,-1.42143083148217e-002°)
1.70215850839493e+000	(-2.28738336322154e-007dB,-1.42470756785507e-002°)
1.70608238900310e+000	(-2.29794143777363e-007dB,-1.42799185788471e-002°)
1.71001531509027e+000	(-2.30854827836828e-007dB,-1.43128371898405e-002°)
1.71395730750840e+000	(-2.31920403929791e-007dB,-1.43458316860621e-002°)
1.71790838715757e+000	(-2.32990900986078e-007dB,-1.43789022424452e-002°)
1.72186857498599e+000	(-2.34066337327914e-007dB,-1.44120490343268e-002°)
1.72583789199018e+000	(-2.35146738027816e-007dB,-1.44452722374476e-002°)
1.72981635921508e+000	(-2.36232127193972e-007dB,-1.44785720279537e-002°)
1.73380399775412e+000	(-2.37322524112935e-007dB,-1.45119485823973e-002°)
1.73780082874935e+000	(-2.38417954821548e-007dB,-1.45454020777374e-002°)
1.74180687339159e+000	(-2.39518441499345e-007dB,-1.45789326913410e-002°)
1.74582215292048e+000	(-2.40624011147499e-007dB,-1.46125406009842e-002°)
1.74984668862464e+000	(-2.41734678230924e-007dB,-1.46462259848524e-002°)
1.75388050184174e+000	(-2.42850474572429e-007dB,-1.46799890215424e-002°)
1.75792361395867e+000	(-2.43971422351548e-007dB,-1.47138298900622e-002°)
1.76197604641161e+000	(-2.45097542783488e-007dB,-1.47477487698327e-002°)
1.76603782068614e+000	(-2.46228862869422e-007dB,-1.47817458406883e-002°)
1.77010895831740e+000	(-2.47365402860228e-007dB,-1.48158212828781e-002°)
1.77418948089014e+000	(-2.48507188792751e-007dB,-1.48499752770665e-002°)
1.77827941003890e+000	(-2.49654247668162e-007dB,-1.48842080043347e-002°)
1.78237876744807e+000	(-2.50806596844359e-007dB,-1.49185196461809e-002°)
1.78648757485203e+000	(-2.51964268144152e-007dB,-1.49529103845221e-002°)
1.79060585403527e+000	(-2.53127282782747e-007dB,-1.49873804016945e-002°)
1.79473362683250e+000	(-2.54295665832660e-007dB,-1.50219298804545e-002°)
1.79887091512876e+000	(-2.55469440437755e-007dB,-1.50565590039800e-002°)
1.80301774085955e+000	(-2.56648634563531e-007dB,-1.50912679558710e-002°)
1.80717412601090e+000	(-2.57833270389523e-007dB,-1.51260569201510e-002°)
1.81134009261958e+000	(-2.59023375881229e-007dB,-1.51609260812674e-002°)
1.81551566277311e+000	(-2.60218972253857e-007dB,-1.51958756240930e-002°)
1.81970085860996e+000	(-2.61420088437235e-007dB,-1.52309057339266e-002°)
1.82389570231961e+000	(-2.62626749503879e-007dB,-1.52660165964945e-002°)
1.82810021614272e+000	(-2.63838979561979e-007dB,-1.53012083979508e-002°)
1.83231442237119e+000	(-2.65056802719725e-007dB,-1.53364813248788e-002°)
1.83653834334832e+000	(-2.66280249835599e-007dB,-1.53718355642920e-002°)
1.84077200146893e+000	(-2.67509345982118e-007dB,-1.54072713036349e-002°)
1.84501541917945e+000	(-2.68744110445836e-007dB,-1.54427887307844e-002°)
1.84926861897805e+000	(-2.69984578906870e-007dB,-1.54783880340500e-002°)
1.85353162341479e+000	(-2.71230770651775e-007dB,-1.55140694021758e-002°)
1.85780445509167e+000	(-2.72482714610377e-007dB,-1.55498330243406e-002°)
1.86208713666284e+000	(-2.73740436819521e-007dB,-1.55856790901596e-002°)
1.86637969083464e+000	(-2.75003965244707e-007dB,-1.56216077896850e-002°)
1.87068214036577e+000	(-2.76273327851435e-007dB,-1.56576193134070e-002°)
