Freq.	V(n004)
1.00000000000000e+000	(-9.62229740552949e+001dB,3.67255791530523e+000°)
1.00230523807790e+000	(-9.62228917201354e+001dB,3.68100074846880e+000°)
1.00461579027840e+000	(-9.62228091326404e+001dB,3.68946293714045e+000°)
1.00693166885180e+000	(-9.62227260979142e+001dB,3.69794444272814e+000°)
1.00925288607668e+000	(-9.62226425497630e+001dB,3.70644528097127e+000°)
1.01157945425990e+000	(-9.62225588393442e+001dB,3.71496564619507e+000°)
1.01391138573668e+000	(-9.62224745839554e+001dB,3.72350541919624e+000°)
1.01624869287070e+000	(-9.62223900239758e+001dB,3.73206474743200e+000°)
1.01859138805412e+000	(-9.62223049815954e+001dB,3.74064359908601e+000°)
1.02093948370768e+000	(-9.62222196726743e+001dB,3.74924211190938e+000°)
1.02329299228075e+000	(-9.62221338995578e+001dB,3.75786024543994e+000°)
1.02565192625141e+000	(-9.62220477748455e+001dB,3.76649809327567e+000°)
1.02801629812647e+000	(-9.62219612031083e+001dB,3.77515565900626e+000°)
1.03038612044162e+000	(-9.62218742861335e+001dB,3.78383303200967e+000°)
1.03276140576140e+000	(-9.62217870034310e+001dB,3.79253024868769e+000°)
1.03514216667934e+000	(-9.62216992424479e+001dB,3.80124730511708e+000°)
1.03752841581801e+000	(-9.62216110529457e+001dB,3.80998426833253e+000°)
1.03992016582906e+000	(-9.62215225168863e+001dB,3.81874121985747e+000°)
1.04231742939330e+000	(-9.62214335736849e+001dB,3.82751817874250e+000°)
1.04472021922080e+000	(-9.62213442284092e+001dB,3.83631519294272e+000°)
1.04712854805090e+000	(-9.62212543550965e+001dB,3.84513225242728e+000°)
1.04954242865232e+000	(-9.62211642377873e+001dB,3.85396952898464e+000°)
1.05196187382322e+000	(-9.62210736494401e+001dB,3.86282696800090e+000°)
1.05438689639126e+000	(-9.62209825814175e+001dB,3.87170461157766e+000°)
1.05681750921366e+000	(-9.62208911081453e+001dB,3.88060253901926e+000°)
1.05925372517729e+000	(-9.62207993069169e+001dB,3.88952083136469e+000°)
1.06169555719872e+000	(-9.62207070103413e+001dB,3.89845946004710e+000°)
1.06414301822431e+000	(-9.62206143025585e+001dB,3.90741850929056e+000°)
1.06659612123026e+000	(-9.62205211697288e+001dB,3.91639801949799e+000°)
1.06905487922266e+000	(-9.62204276185640e+001dB,3.92539804043351e+000°)
1.07151930523761e+000	(-9.62203336144705e+001dB,3.93441860326289e+000°)
1.07398941234124e+000	(-9.62202392147840e+001dB,3.94345978090532e+000°)
1.07646521362983e+000	(-9.62201443831838e+001dB,3.95252160397105e+000°)
1.07894672222983e+000	(-9.62200490716191e+001dB,3.96160409763772e+000°)
1.08143395129794e+000	(-9.62199533159426e+001dB,3.97070732541709e+000°)
1.08392691402120e+000	(-9.62198571962792e+001dB,3.97983137143377e+000°)
1.08642562361706e+000	(-9.62197605518801e+001dB,3.98897620939124e+000°)
1.08893009333343e+000	(-9.62196634987437e+001dB,3.99814194008972e+000°)
1.09144033644876e+000	(-9.62195660179906e+001dB,4.00732860254746e+000°)
1.09395636627209e+000	(-9.62194680671777e+001dB,4.01653622493436e+000°)
1.09647819614318e+000	(-9.62193696652650e+001dB,4.02576486386344e+000°)
1.09900583943252e+000	(-9.62192708645929e+001dB,4.03501459162407e+000°)
1.10153930954141e+000	(-9.62191715149501e+001dB,4.04428538642133e+000°)
1.10407861990207e+000	(-9.62190717582477e+001dB,4.05357736246336e+000°)
1.10662378397766e+000	(-9.62189715523663e+001dB,4.06289054845709e+000°)
1.10917481526240e+000	(-9.62188708392775e+001dB,4.07222496557653e+000°)
1.11173172728159e+000	(-9.62187697010481e+001dB,4.08158070079190e+000°)
1.11429453359173e+000	(-9.62186681584939e+001dB,4.09095781265524e+000°)
1.11686324778056e+000	(-9.62185660609405e+001dB,4.10035627880704e+000°)
1.11943788346715e+000	(-9.62184634831854e+001dB,4.10977618322934e+000°)
1.12201845430196e+000	(-9.62183605028113e+001dB,4.11921761166877e+000°)
1.12460497396692e+000	(-9.62182570065298e+001dB,4.12868055944223e+000°)
1.12719745617551e+000	(-9.62181531111883e+001dB,4.13816513129408e+000°)
1.12979591467280e+000	(-9.62180485960775e+001dB,4.14767127114582e+000°)
1.13240036323556e+000	(-9.62179436927985e+001dB,4.15719913892661e+000°)
1.13501081567231e+000	(-9.62178382798676e+001dB,4.16674872601256e+000°)
1.13762728582343e+000	(-9.62177325037622e+001dB,4.17632015243902e+000°)
1.14024978756117e+000	(-9.62176260658843e+001dB,4.18591332412555e+000°)
1.14287833478977e+000	(-9.62175191582679e+001dB,4.19552838317836e+000°)
1.14551294144553e+000	(-9.62174118564678e+001dB,4.20516541621279e+000°)
1.14815362149688e+000	(-9.62173040933253e+001dB,4.21482444090269e+000°)
1.15080038894443e+000	(-9.62171956872420e+001dB,4.22450541896737e+000°)
1.15345325782109e+000	(-9.62170868778263e+001dB,4.23420851716180e+000°)
1.15611224219210e+000	(-9.62169775624223e+001dB,4.24393373587567e+000°)
1.15877735615512e+000	(-9.62168677206723e+001dB,4.25368111553293e+000°)
1.16144861384034e+000	(-9.62167573389420e+001dB,4.26345069989428e+000°)
1.16412602941049e+000	(-9.62166465251291e+001dB,4.27324259267972e+000°)
1.16680961706096e+000	(-9.62165351528807e+001dB,4.28305678249219e+000°)
1.16949939101987e+000	(-9.62164232740419e+001dB,4.29289334571379e+000°)
1.17219536554813e+000	(-9.62163109665597e+001dB,4.30275237202316e+000°)
1.17489755493953e+000	(-9.62161979884334e+001dB,4.31263379244092e+000°)
1.17760597352080e+000	(-9.62160847178367e+001dB,4.32253784620766e+000°)
1.18032063565173e+000	(-9.62159707332973e+001dB,4.33246437476521e+000°)
1.18304155572516e+000	(-9.62158562684530e+001dB,4.34241354593031e+000°)
1.18576874816716e+000	(-9.62157412911958e+001dB,4.35238539526776e+000°)
1.18850222743702e+000	(-9.62156257412889e+001dB,4.36237994417810e+000°)
1.19124200802737e+000	(-9.62155097508990e+001dB,4.37239731093049e+000°)
1.19398810446427e+000	(-9.62153931817824e+001dB,4.38243747783616e+000°)
1.19674053130724e+000	(-9.62152760810166e+001dB,4.39250052057058e+000°)
1.19949930314938e+000	(-9.62151584262637e+001dB,4.40258647990786e+000°)
1.20226443461741e+000	(-9.62150401650441e+001dB,4.41269538130353e+000°)
1.20503594037179e+000	(-9.62149215105023e+001dB,4.42282738562531e+000°)
1.20781383510678e+000	(-9.62148022454613e+001dB,4.43298243473920e+000°)
1.21059813355048e+000	(-9.62146824190612e+001dB,4.44316060618665e+000°)
1.21338885046497e+000	(-9.62145620510777e+001dB,4.45336196275323e+000°)
1.21618600064636e+000	(-9.62144411537239e+001dB,4.46358656355187e+000°)
1.21898959892486e+000	(-9.62143197253352e+001dB,4.47383446068913e+000°)
1.22179966016487e+000	(-9.62141976055299e+001dB,4.48410562429629e+000°)
1.22461619926504e+000	(-9.62140750042612e+001dB,4.49440021590038e+000°)
1.22743923115840e+000	(-9.62139518969837e+001dB,4.50471827627531e+000°)
1.23026877081238e+000	(-9.62138281994701e+001dB,4.51505981510613e+000°)
1.23310483322890e+000	(-9.62137038568238e+001dB,4.52542485712214e+000°)
1.23594743344451e+000	(-9.62135790986952e+001dB,4.53581357580099e+000°)
1.23879658653036e+000	(-9.62134535835714e+001dB,4.54622584628326e+000°)
1.24165230759241e+000	(-9.62133276113417e+001dB,4.55666187939889e+000°)
1.24451461177138e+000	(-9.62132009773683e+001dB,4.56712162166609e+000°)
1.24738351424294e+000	(-9.62130738782480e+001dB,4.57760523069858e+000°)
1.25025903021771e+000	(-9.62129461050537e+001dB,4.58811265046314e+000°)
1.25314117494141e+000	(-9.62128177386623e+001dB,4.59864397784333e+000°)
1.25602996369487e+000	(-9.62126889011214e+001dB,4.60919933212961e+000°)
1.25892541179416e+000	(-9.62125593906838e+001dB,4.61977866071462e+000°)
1.26182753459066e+000	(-9.62124293175306e+001dB,4.63038207683528e+000°)
1.26473634747115e+000	(-9.62122986130908e+001dB,4.64100959863684e+000°)
1.26765186585784e+000	(-9.62121672747969e+001dB,4.65166127947846e+000°)
1.27057410520854e+000	(-9.62120353699708e+001dB,4.66233721046344e+000°)
1.27350308101666e+000	(-9.62119028587145e+001dB,4.67303742531053e+000°)
1.27643880881134e+000	(-9.62117697556467e+001dB,4.68376198716430e+000°)
1.27938130415752e+000	(-9.62116360118514e+001dB,4.69451092491128e+000°)
1.28233058265602e+000	(-9.62115017218288e+001dB,4.70528434524166e+000°)
1.28528665994361e+000	(-9.62113667830113e+001dB,4.71608224815677e+000°)
1.28824955169313e+000	(-9.62112312014177e+001dB,4.72690469254275e+000°)
1.29121927361353e+000	(-9.62110950295446e+001dB,4.73775176282250e+000°)
1.29419584144998e+000	(-9.62109581487991e+001dB,4.74862345008264e+000°)
1.29717927098395e+000	(-9.62108207257460e+001dB,4.75951990156790e+000°)
1.30016957803328e+000	(-9.62106826517825e+001dB,4.77044111398080e+000°)
1.30316677845229e+000	(-9.62105439439610e+001dB,4.78138715296692e+000°)
1.30617088813183e+000	(-9.62104046639645e+001dB,4.79235810908277e+000°)
1.30918192299940e+000	(-9.62102645857139e+001dB,4.80335391376456e+000°)
1.31219989901920e+000	(-9.62101239625132e+001dB,4.81437476383592e+000°)
1.31522483219223e+000	(-9.62099827693206e+001dB,4.82542070252769e+000°)
1.31825673855640e+000	(-9.62098408018277e+001dB,4.83649167296564e+000°)
1.32129563418657e+000	(-9.62096982500408e+001dB,4.84758783803012e+000°)
1.32434153519466e+000	(-9.62095550037517e+001dB,4.85870919332101e+000°)
1.32739445772973e+000	(-9.62094112205036e+001dB,4.86985588450415e+000°)
1.33045441797808e+000	(-9.62092666186857e+001dB,4.88102781080474e+000°)
1.33352143216332e+000	(-9.62091214438701e+001dB,4.89222516778270e+000°)
1.33659551654643e+000	(-9.62089755705374e+001dB,4.90344794242257e+000°)
1.33967668742593e+000	(-9.62088290536574e+001dB,4.91469622351089e+000°)
1.34276496113786e+000	(-9.62086818233974e+001dB,4.92597002936440e+000°)
1.34586035405594e+000	(-9.62085339590439e+001dB,4.93726946301418e+000°)
1.34896288259164e+000	(-9.62083853859341e+001dB,4.94859454010023e+000°)
1.35207256319427e+000	(-9.62082361430828e+001dB,4.95994534111498e+000°)
1.35518941235103e+000	(-9.62080863197117e+001dB,4.97132197568733e+000°)
1.35831344658715e+000	(-9.62079357339926e+001dB,4.98272439814658e+000°)
1.36144468246594e+000	(-9.62077843557575e+001dB,4.99415264945365e+000°)
1.36458313658892e+000	(-9.62076323550858e+001dB,5.00560688624792e+000°)
1.36772882559584e+000	(-9.62074796950818e+001dB,5.01708714631728e+000°)
1.37088176616484e+000	(-9.62073263145139e+001dB,5.02859345327957e+000°)
1.37404197501251e+000	(-9.62071722187495e+001dB,5.04012586932825e+000°)
1.37720946889394e+000	(-9.62070174196587e+001dB,5.05168446057505e+000°)
1.38038426460288e+000	(-9.62068618724120e+001dB,5.06326926021570e+000°)
1.38356637897177e+000	(-9.62067057004116e+001dB,5.07488039994675e+000°)
1.38675582887188e+000	(-9.62065487579569e+001dB,5.08651785416548e+000°)
1.38995263121334e+000	(-9.62063910423009e+001dB,5.09818168080783e+000°)
1.39315680294529e+000	(-9.62062327400326e+001dB,5.10987204964901e+000°)
1.39636836105593e+000	(-9.62060736217692e+001dB,5.12158888559442e+000°)
1.39958732257261e+000	(-9.62059137820388e+001dB,5.13333230448254e+000°)
1.40281370456195e+000	(-9.62057532617613e+001dB,5.14510239090310e+000°)
1.40604752412990e+000	(-9.62055920209704e+001dB,5.15689918168475e+000°)
1.40928879842186e+000	(-9.62054299427010e+001dB,5.16872266762474e+000°)
1.41253754462274e+000	(-9.62052671499604e+001dB,5.18057298254854e+000°)
1.41579377995707e+000	(-9.62051037236689e+001dB,5.19245023587626e+000°)
1.41905752168908e+000	(-9.62049394342977e+001dB,5.20435435105807e+000°)
1.42232878712281e+000	(-9.62047744698995e+001dB,5.21628550192852e+000°)
1.42560759360218e+000	(-9.62046086192894e+001dB,5.22824362250031e+000°)
1.42889395851109e+000	(-9.62044420644279e+001dB,5.24022888363848e+000°)
1.43218789927353e+000	(-9.62042748554891e+001dB,5.25224137741387e+000°)
1.43548943335364e+000	(-9.62041067320958e+001dB,5.26428100758737e+000°)
1.43879857825583e+000	(-9.62039379230359e+001dB,5.27634797461663e+000°)
1.44211535152486e+000	(-9.62037683033109e+001dB,5.28844226434630e+000°)
1.44543977074592e+000	(-9.62035979437371e+001dB,5.30056398191758e+000°)
1.44877185354475e+000	(-9.62034268218895e+001dB,5.31271317579476e+000°)
1.45211161758773e+000	(-9.62032548868528e+001dB,5.32488987697888e+000°)
1.45545908058195e+000	(-9.62030821312563e+001dB,5.33709414313953e+000°)
1.45881426027534e+000	(-9.62029086504258e+001dB,5.34932609549270e+000°)
1.46217717445671e+000	(-9.62027342726803e+001dB,5.36158569062708e+000°)
1.46554784095590e+000	(-9.62025592533261e+001dB,5.37387314930068e+000°)
1.46892627764385e+000	(-9.62023832686272e+001dB,5.38618833365766e+000°)
1.47231250243271e+000	(-9.62022065667315e+001dB,5.39853146071865e+000°)
1.47570653327588e+000	(-9.62020290999710e+001dB,5.41090256420721e+000°)
1.47910838816819e+000	(-9.62018508081758e+001dB,5.42330166989602e+000°)
1.48251808514594e+000	(-9.62016716360253e+001dB,5.43572880640458e+000°)
1.48593564228699e+000	(-9.62014916896843e+001dB,5.44818410376632e+000°)
1.48936107771090e+000	(-9.62013108403796e+001dB,5.46066754465613e+000°)
1.49279440957898e+000	(-9.62011292517861e+001dB,5.47317929598936e+000°)
1.49623565609442e+000	(-9.62009467303446e+001dB,5.48571929943304e+000°)
1.49968483550236e+000	(-9.62007635112793e+001dB,5.49828776798527e+000°)
1.50314196609001e+000	(-9.62005793212643e+001dB,5.51088459249017e+000°)
1.50660706618673e+000	(-9.62003944357403e+001dB,5.52351001240836e+000°)
1.51008015416413e+000	(-9.62002085393092e+001dB,5.53616389117768e+000°)
1.51356124843619e+000	(-9.62000219485757e+001dB,5.54884649559532e+000°)
1.51705036745932e+000	(-9.61998344166501e+001dB,5.56155773248132e+000°)
1.52054752973248e+000	(-9.61996460438972e+001dB,5.57429773095036e+000°)
1.52405275379728e+000	(-9.61994567598892e+001dB,5.58706651062305e+000°)
1.52756605823806e+000	(-9.61992667436327e+001dB,5.59986425220995e+000°)
1.53108746168202e+000	(-9.61990757167568e+001dB,5.61269084113422e+000°)
1.53461698279928e+000	(-9.61988839718880e+001dB,5.62554653230956e+000°)
1.53815464030302e+000	(-9.61986911986835e+001dB,5.63843118984969e+000°)
1.54170045294954e+000	(-9.61984975869851e+001dB,5.65134500270724e+000°)
1.54525443953840e+000	(-9.61983031436349e+001dB,5.66428804137213e+000°)
1.54881661891247e+000	(-9.61981077975943e+001dB,5.67726032544448e+000°)
1.55238700995807e+000	(-9.61979115502437e+001dB,5.69026192188678e+000°)
1.55596563160506e+000	(-9.61977143449012e+001dB,5.70329285954610e+000°)
1.55955250282694e+000	(-9.61975162759973e+001dB,5.71635326686602e+000°)
1.56314764264094e+000	(-9.61973173818008e+001dB,5.72944323585945e+000°)
1.56675107010813e+000	(-9.61971175065768e+001dB,5.74256273023640e+000°)
1.57036280433354e+000	(-9.61969166158279e+001dB,5.75571179349239e+000°)
1.57398286446620e+000	(-9.61967149371196e+001dB,5.76889064378626e+000°)
1.57761126969933e+000	(-9.61965123048341e+001dB,5.78209923809681e+000°)
1.58124803927037e+000	(-9.61963087626821e+001dB,5.79533767277525e+000°)
1.58489319246110e+000	(-9.61961042489191e+001dB,5.80860597378579e+000°)
1.58854674859776e+000	(-9.61958988170238e+001dB,5.82190424438923e+000°)
1.59220872705115e+000	(-9.61956925245003e+001dB,5.83523259105147e+000°)
1.59587914723672e+000	(-9.61954851669738e+001dB,5.84859094377835e+000°)
1.59955802861465e+000	(-9.61952769543754e+001dB,5.86197951208737e+000°)
1.60324539069002e+000	(-9.61950677247628e+001dB,5.87539825449808e+000°)
1.60694125301286e+000	(-9.61948576313392e+001dB,5.88884734314642e+000°)
1.61064563517825e+000	(-9.61946464070148e+001dB,5.90232666460093e+000°)
1.61435855682647e+000	(-9.61944344522999e+001dB,5.91583656032141e+000°)
1.61808003764305e+000	(-9.61942213689847e+001dB,5.92937682714211e+000°)
1.62181009735891e+000	(-9.61940073025899e+001dB,5.94294763299776e+000°)
1.62554875575047e+000	(-9.61937923602842e+001dB,5.95654912047975e+000°)
1.62929603263970e+000	(-9.61935764413804e+001dB,5.97018128962210e+000°)
1.63305194789432e+000	(-9.61933593578591e+001dB,5.98384407961957e+000°)
1.63681652142779e+000	(-9.61931414582052e+001dB,5.99753780043348e+000°)
1.64058977319952e+000	(-9.61929224981005e+001dB,6.01126235262714e+000°)
1.64437172321491e+000	(-9.61927026065128e+001dB,6.02501789528661e+000°)
1.64816239152549e+000	(-9.61924816497635e+001dB,6.03880440515978e+000°)
1.65196179822900e+000	(-9.61922596932940e+001dB,6.05262199761794e+000°)
1.65576996346951e+000	(-9.61920366571566e+001dB,6.06647068664866e+000°)
1.65958690743754e+000	(-9.61918127207914e+001dB,6.08035066821695e+000°)
1.66341265037015e+000	(-9.61915877553989e+001dB,6.09426192244606e+000°)
1.66724721255104e+000	(-9.61913616952098e+001dB,6.10820447334422e+000°)
1.67109061431069e+000	(-9.61911345435962e+001dB,6.12217839353639e+000°)
1.67494287602642e+000	(-9.61909064689669e+001dB,6.13618387291299e+000°)
1.67880401812254e+000	(-9.61906772573441e+001dB,6.15022083080797e+000°)
1.68267406107045e+000	(-9.61904471352963e+001dB,6.16428949917134e+000°)
1.68655302538872e+000	(-9.61902158971465e+001dB,6.17838980298381e+000°)
1.69044093164324e+000	(-9.61899835701119e+001dB,6.19252183268407e+000°)
1.69433780044731e+000	(-9.61897502547898e+001dB,6.20668573175808e+000°)
1.69824365246172e+000	(-9.61895157276646e+001dB,6.22088141142867e+000°)
1.70215850839493e+000	(-9.61892802905255e+001dB,6.23510916021527e+000°)
1.70608238900310e+000	(-9.61890437694136e+001dB,6.24936892513548e+000°)
1.71001531509027e+000	(-9.61888061089603e+001dB,6.26366073809111e+000°)
1.71395730750840e+000	(-9.61885673755978e+001dB,6.27798471916682e+000°)
1.71790838715757e+000	(-9.61883276147373e+001dB,6.29234097379144e+000°)
1.72186857498599e+000	(-9.61880866826225e+001dB,6.30672946992336e+000°)
1.72583789199018e+000	(-9.61878446044869e+001dB,6.32115029824179e+000°)
1.72981635921508e+000	(-9.61876015510883e+001dB,6.33560365635516e+000°)
1.73380399775412e+000	(-9.61873573142235e+001dB,6.35008946496680e+000°)
1.73780082874935e+000	(-9.61871119726386e+001dB,6.36460785469441e+000°)
1.74180687339159e+000	(-9.61868654844839e+001dB,6.37915886792948e+000°)
1.74582215292048e+000	(-9.61866179412488e+001dB,6.39374264553185e+000°)
1.74984668862464e+000	(-9.61863691746400e+001dB,6.40835913665031e+000°)
1.75388050184174e+000	(-9.61861194381687e+001dB,6.42300860273045e+000°)
1.75792361395867e+000	(-9.61858684181070e+001dB,6.43769088486691e+000°)
1.76197604641161e+000	(-9.61856162680804e+001dB,6.45240617089791e+000°)
1.76603782068614e+000	(-9.61853629490201e+001dB,6.46715450575932e+000°)
1.77010895831740e+000	(-9.61851085377415e+001dB,6.48193602118065e+000°)
1.77418948089014e+000	(-9.61848530095899e+001dB,6.49675077335614e+000°)
1.77827941003890e+000	(-9.61845963029370e+001dB,6.51159879063415e+000°)
1.78237876744807e+000	(-9.61843383053184e+001dB,6.52648006276211e+000°)
1.78648757485203e+000	(-9.61840792337657e+001dB,6.54139482812834e+000°)
1.79060585403527e+000	(-9.61838189986888e+001dB,6.55634309431450e+000°)
1.79473362683250e+000	(-9.61835575134247e+001dB,6.57132487068867e+000°)
1.79887091512876e+000	(-9.61832948380481e+001dB,6.58634027798686e+000°)
1.80301774085955e+000	(-9.61830309694666e+001dB,6.60138938926968e+000°)
1.80717412601090e+000	(-9.61827659190358e+001dB,6.61647228882947e+000°)
1.81134009261958e+000	(-9.61824997220633e+001dB,6.63158907961258e+000°)
1.81551566277311e+000	(-9.61822322191672e+001dB,6.64673971530426e+000°)
1.81970085860996e+000	(-9.61819635460846e+001dB,6.66192437602000e+000°)
1.82389570231961e+000	(-9.61816936746073e+001dB,6.67714311645459e+000°)
1.82810021614272e+000	(-9.61814224508636e+001dB,6.69239589395099e+000°)
1.83231442237119e+000	(-9.61811501655885e+001dB,6.70768300993353e+000°)
1.83653834334832e+000	(-9.61808764682212e+001dB,6.72300426935862e+000°)
1.84077200146893e+000	(-9.61806016399002e+001dB,6.73835996722285e+000°)
1.84501541917945e+000	(-9.61803255693119e+001dB,6.75375009415460e+000°)
1.84926861897805e+000	(-9.61800481808270e+001dB,6.76917466806856e+000°)
1.85353162341479e+000	(-9.61797695547890e+001dB,6.78463382894983e+000°)
1.85780445509167e+000	(-9.61794896002267e+001dB,6.80012758277689e+000°)
1.86208713666284e+000	(-9.61792084839354e+001dB,6.81565613830997e+000°)
1.86637969083464e+000	(-9.61789259797535e+001dB,6.83121939510879e+000°)
1.87068214036577e+000	(-9.61786423332541e+001dB,6.84681762502677e+000°)
1.87499450806739e+000	(-9.61783572853253e+001dB,6.86245070110588e+000°)
1.87931681680324e+000	(-9.61780708633641e+001dB,6.87811872272163e+000°)
1.88364908948977e+000	(-9.61777832590390e+001dB,6.89382192064699e+000°)
1.88799134909627e+000	(-9.61774943728311e+001dB,6.90956029449793e+000°)
