Freq.	V(vout)
Step Information: Run=1  (Run: 1/10)
1.00000000000000e+003	(-1.10806245090421e+001dB,8.20552504989378e+001°)
1.02329299228075e+003	(-1.07714782152776e+001dB,8.17655155279591e+001°)
1.04712854805090e+003	(-1.04558445632532e+001dB,8.14586408664306e+001°)
1.07151930523761e+003	(-1.01332571668042e+001dB,8.11330030926463e+001°)
1.09647819614319e+003	(-9.80320669114959e+000dB,8.07867648649664e+001°)
1.12201845430196e+003	(-9.46513581359780e+000dB,8.04178389429848e+001°)
1.14815362149688e+003	(-9.11843347616992e+000dB,8.00238448017910e+001°)
1.17489755493953e+003	(-8.76242832239370e+000dB,7.96020560251678e+001°)
1.20226443461741e+003	(-8.39638119651978e+000dB,7.91493361467808e+001°)
1.23026877081238e+003	(-8.01947657010773e+000dB,7.86620599236892e+001°)
1.25892541179417e+003	(-7.63081275060134e+000dB,7.81360161126801e+001°)
1.28824955169313e+003	(-7.22939072327952e+000dB,7.75662865914007e+001°)
1.31825673855641e+003	(-6.81410148912745e+000dB,7.69470950024829e+001°)
1.34896288259165e+003	(-6.38371179945880e+000dB,7.62716158293251e+001°)
1.38038426460288e+003	(-5.93684827564060e+000dB,7.55317316948784e+001°)
1.41253754462275e+003	(-5.47198007734745e+000dB,7.47177223660661e+001°)
1.44543977074593e+003	(-4.98740061194718e+000dB,7.38178629600243e+001°)
1.47910838816821e+003	(-4.48120937697286e+000dB,7.28179005033608e+001°)
1.51356124843621e+003	(-3.95129610081061e+000dB,7.17003663605740e+001°)
1.54881661891248e+003	(-3.39533125328823e+000dB,7.04436659085301e+001°)
1.58489319246111e+003	(-2.81077037641869e+000dB,6.90208647692279e+001°)
1.62181009735893e+003	(-2.19488567484735e+000dB,6.73980617075760e+001°)
1.65958690743756e+003	(-1.54484893453542e+000dB,6.55322022861441e+001°)
1.69824365246174e+003	(-8.57908686512416e-001dB,6.33681501756627e+001°)
1.73780082874937e+003	(-1.31737738929028e-001dB,6.08348153404432e+001°)
1.77827941003892e+003	(6.34915409318938e-001dB,5.78402000306539e+001°)
1.81970085860998e+003	(1.44104306451224e+000dB,5.42655198989296e+001°)
1.86208713666287e+003	(2.28129470275729e+000dB,4.99594575277485e+001°)
1.90546071796325e+003	(3.14247610334299e+000dB,4.47358859476854e+001°)
1.94984459975804e+003	(3.99815809602691e+000dB,3.83833235921486e+001°)
1.99526231496888e+003	(4.80180152669650e+000dB,3.07025520490291e+001°)
2.04173794466953e+003	(5.48179181460103e+000dB,2.15945464739113e+001°)
2.08929613085404e+003	(5.94721718861679e+000dB,1.12004672806833e+001°)
2.13796208950223e+003	(6.11461909914470e+000dB,1.71050691213225e-002°)
2.18776162394955e+003	(5.94893576406949e+000dB,-1.11684894762068e+001°)
2.23872113856834e+003	(5.48488343072264e+000dB,-2.15683664868576e+001°)
2.29086765276777e+003	(4.80577426084357e+000dB,-3.06838151771370e+001°)
2.34422881531992e+003	(4.00257135830291e+000dB,-3.83720221313508e+001°)
2.39883291901949e+003	(3.14702061465180e+000dB,-4.47311466974028e+001°)
2.45470891568503e+003	(2.28578454148553e+000dB,-4.99601631408371e+001°)
2.51188643150958e+003	(1.44537947697457e+000dB,-5.42706213099508e+001°)
2.57039578276886e+003	(6.39053374163695e-001dB,-5.78488221088483e+001°)
2.63026799189538e+003	(-1.27812649959970e-001dB,-6.08462655921775e+001°)
2.69153480392691e+003	(-8.54194509576720e-001dB,-6.33818932084129e+001°)
2.75422870333816e+003	(-1.54133552147643e+000dB,-6.55478276628963e+001°)
2.81838293126445e+003	(-2.19155927093795e+000dB,-6.74152550821011e+001°)
2.88403150312660e+003	(-2.80761610000923e+000dB,-6.90393847288251e+001°)
2.95120922666638e+003	(-3.39233439101349e+000dB,-7.04633262606270e+001°)
3.01995172040201e+003	(-3.94844274369147e+000dB,-7.17210228568661e+001°)
3.09029543251359e+003	(-4.47848669466574e+000dB,-7.28394409587220e+001°)
3.16227766016838e+003	(-4.98479693216512e+000dB,-7.38401998966177e+001°)
3.23593656929628e+003	(-5.46948486391973e+000dB,-7.47407875145922e+001°)
3.31131121482591e+003	(-5.93445205723690e+000dB,-7.55554718580925e+001°)
3.38844156139202e+003	(-6.38140607764032e+000dB,-7.62959897470873e+001°)
3.46736850452531e+003	(-6.81187864120089e+000dB,-7.69720709568639e+001°)
3.54813389233575e+003	(-7.22724390799433e+000dB,-7.75918405622503e+001°)
3.63078054770101e+003	(-7.62873582055796e+000dB,-7.81621303457112e+001°)
3.71535229097172e+003	(-8.01746399243120e+000dB,-7.86887218101378e+001°)
3.80189396320561e+003	(-8.39442798210077e+000dB,-7.91765373402930e+001°)
3.89045144994280e+003	(-8.76052996335039e+000dB,-7.96297917407478e+001°)
3.98107170553497e+003	(-9.11658589087767e+000dB,-8.00521132555706e+001°)
4.07380277804112e+003	(-9.46333529851789e+000dB,-8.04466409017442e+001°)
4.16869383470335e+003	(-9.80144987867507e+000dB,-8.08161032818243e+001°)
4.26579518801592e+003	(-1.01315409883817e+001dB,-8.11628828108848e+001°)
4.36515832240165e+003	(-1.04541662171037e+001dB,-8.14890683775646e+001°)
4.46683592150962e+003	(-1.07698351381129e+001dB,-8.17964987732748e+001°)
4.57088189614874e+003	(-1.10790143512466e+001dB,-8.20867987060858e+001°)
4.67735141287197e+003	(-1.13821319113596e+001dB,-8.23614088224644e+001°)
4.78630092322637e+003	(-1.16795812243439e+001dB,-8.26216108590003e+001°)
4.89778819368445e+003	(-1.19717244814564e+001dB,-8.28685488143588e+001°)
5.01187233627271e+003	(-1.22588956929117e+001dB,-8.31032468518840e+001°)
5.12861383991364e+003	(-1.25414033731883e+001dB,-8.33266245029927e+001°)
5.24807460249772e+003	(-1.28195329231497e+001dB,-8.35395096313953e+001°)
5.37031796370252e+003	(-1.30935487477829e+001dB,-8.37426495312722e+001°)
5.49540873857624e+003	(-1.33636961429479e+001dB,-8.39367204635450e+001°)
5.62341325190348e+003	(-1.36302029799215e+001dB,-8.41223358793374e+001°)
5.75439937337156e+003	(-1.38932812125699e+001dB,-8.43000535355698e+001°)
5.88843655355588e+003	(-1.41531282286164e+001dB,-8.44703816720438e+001°)
6.02559586074357e+003	(-1.44099280635873e+001dB,-8.46337843905606e+001°)
6.16595001861481e+003	(-1.46638524935570e+001dB,-8.47906863531712e+001°)
6.30957344480192e+003	(-1.49150620206983e+001dB,-8.49414768975077e+001°)
6.45654229034654e+003	(-1.51637067638352e+001dB,-8.50865136514278e+001°)
6.60693448007595e+003	(-1.54099272646375e+001dB,-8.52261257162617e+001°)
6.76082975391980e+003	(-1.56538552187573e+001dB,-8.53606164772449e+001°)
6.91830970918935e+003	(-1.58956141400537e+001dB,-8.54902660908325e+001°)
7.07945784384136e+003	(-1.61353199650521e+001dB,-8.56153336911887e+001°)
7.24435960074989e+003	(-1.63730816039251e+001dB,-8.57360593519558e+001°)
7.41310241300916e+003	(-1.66090014435296e+001dB,-8.58526658342140e+001°)
7.58577575029182e+003	(-1.68431758073876e+001dB,-8.59653601471755e+001°)
7.76247116628690e+003	(-1.70756953769316e+001dB,-8.60743349444684e+001°)
7.94328234724280e+003	(-1.73066455778426e+001dB,-8.61797697757407e+001°)
8.12830516164097e+003	(-1.75361069348772e+001dB,-8.62818322106653e+001°)
8.31763771102669e+003	(-1.77641553982039e+001dB,-8.63806788501671e+001°)
8.51138038202374e+003	(-1.79908626439389e+001dB,-8.64764562377630e+001°)
8.70963589956079e+003	(-1.82162963512805e+001dB,-8.65693016822572e+001°)
8.91250938133744e+003	(-1.84405204583847e+001dB,-8.66593440016136e+001°)
9.12010839355908e+003	(-1.86635953989036e+001dB,-8.67467041966092e+001°)
9.33254300796989e+003	(-1.88855783209042e+001dB,-8.68314960618176e+001°)
9.54992586021434e+003	(-1.91065232897139e+001dB,-8.69138267405658e+001°)
9.77237220955809e+003	(-1.93264814760802e+001dB,-8.69937972297123e+001°)
1.00000000000000e+004	(-1.95455013308969e+001dB,-8.70715028394168e+001°)
Step Information: Run=2  (Run: 2/10)
1.00000000000000e+003	(-9.62471692082062e+000dB,8.05907922560940e+001°)
1.02329299228075e+003	(-9.31721202637604e+000dB,8.02485480292470e+001°)
1.04712854805090e+003	(-9.00339908372882e+000dB,7.98861865591923e+001°)
1.07151930523761e+003	(-8.68283684179366e+000dB,7.95018223923630e+001°)
1.09647819614319e+003	(-8.35504546427374e+000dB,7.90933253640172e+001°)
1.12201845430196e+003	(-8.01950240087746e+000dB,7.86582802931189e+001°)
1.14815362149688e+003	(-7.67563777369069e+000dB,7.81939386097792e+001°)
1.17489755493953e+003	(-7.32282923404544e+000dB,7.76971600117397e+001°)
1.20226443461741e+003	(-6.96039625141073e+000dB,7.71643417305011e+001°)
1.23026877081238e+003	(-6.58759380990291e+000dB,7.65913323151493e+001°)
1.25892541179417e+003	(-6.20360551503309e+000dB,7.59733259609302e+001°)
1.28824955169313e+003	(-5.80753616133045e+000dB,7.53047322504710e+001°)
1.31825673855641e+003	(-5.39840389334456e+000dB,7.45790146448103e+001°)
1.34896288259165e+003	(-4.97513222877542e+000dB,7.37884890346879e+001°)
1.38038426460288e+003	(-4.53654243609341e+000dB,7.29240709766705e+001°)
1.41253754462275e+003	(-4.08134712321469e+000dB,7.19749566851904e+001°)
1.44543977074593e+003	(-3.60814648485578e+000dB,7.09282181773316e+001°)
1.47910838816821e+003	(-3.11542961449791e+000dB,6.97682868954825e+001°)
1.51356124843621e+003	(-2.60158484149120e+000dB,6.84762924358629e+001°)
1.54881661891248e+003	(-2.06492557826367e+000dB,6.70292137013350e+001°)
1.58489319246111e+003	(-1.50374226268715e+000dB,6.53987895887315e+001°)
1.62181009735893e+003	(-9.16397624506748e-001dB,6.35501276733325e+001°)
1.65958690743756e+003	(-3.01493190663018e-001dB,6.14399487549056e+001°)
1.69824365246174e+003	(3.41848161012607e-001dB,5.90144279262086e+001°)
1.73780082874937e+003	(1.01351301815524e+000dB,5.62066729646702e+001°)
1.77827941003892e+003	(1.71163455611326e+000dB,5.29340890980965e+001°)
1.81970085860998e+003	(2.43138558166529e+000dB,4.90963520292646e+001°)
1.86208713666287e+003	(3.16315040378053e+000dB,4.45756777240689e+001°)
1.90546071796325e+003	(3.88996347599466e+000dB,3.92428107632592e+001°)
1.94984459975804e+003	(4.58443875745790e+000dB,3.29745954616472e+001°)
1.99526231496888e+003	(5.20631326428036e+000dB,2.56905443356716e+001°)
2.04173794466953e+003	(5.70329452754534e+000dB,1.74112196783847e+001°)
2.08929613085404e+003	(6.01901949303480e+000dB,8.32238822796314e+000°)
2.13796208950223e+003	(6.10937939847641e+000dB,-1.20094401309762e+000°)
2.18776162394955e+003	(5.96040113329031e+000dB,-1.06602686360691e+001°)
2.23872113856834e+003	(5.59478967002842e+000dB,-1.95762681826287e+001°)
2.29086765276777e+003	(5.06150769599655e+000dB,-2.76187278657763e+001°)
2.34422881531992e+003	(4.41714564610900e+000dB,-3.46476771129660e+001°)
2.39883291901949e+003	(3.71141684307958e+000dB,-4.06739314441085e+001°)
2.45470891568503e+003	(2.98127855596567e+000dB,-4.57932267183404e+001°)
2.51188643150958e+003	(2.25124701971761e+000dB,-5.01327853186136e+001°)
2.57039578276886e+003	(1.53618830299067e+000dB,-5.38200829631238e+001°)
2.63026799189538e+003	(8.44320026512030e-001dB,-5.69688297058955e+001°)
2.69153480392691e+003	(1.79591590615683e-001dB,-5.96748461569767e+001°)
2.75422870333816e+003	(-4.56657522021299e-001dB,-6.20166002795848e+001°)
2.81838293126445e+003	(-1.06461714485853e+000dB,-6.40574941411054e+001°)
2.88403150312660e+003	(-1.64532874085286e+000dB,-6.58485136480487e+001°)
2.95120922666638e+003	(-2.20027090238402e+000dB,-6.74306721769739e+001°)
3.01995172040201e+003	(-2.73111099151870e+000dB,-6.88370686538089e+001°)
3.09029543251359e+003	(-3.23955970013465e+000dB,-7.00945475020561e+001°)
3.16227766016838e+003	(-3.72728863284361e+000dB,-7.12250090353837e+001°)
3.23593656929628e+003	(-4.19588613182711e+000dB,-7.22464336498081e+001°)
3.31131121482591e+003	(-4.64683607093625e+000dB,-7.31736796054070e+001°)
3.38844156139202e+003	(-5.08151024311493e+000dB,-7.40191047603177e+001°)
3.46736850452531e+003	(-5.50116860083945e+000dB,-7.47930524990006e+001°)
3.54813389233575e+003	(-5.90696384749514e+000dB,-7.55042331594762e+001°)
3.63078054770101e+003	(-6.29994825626803e+000dB,-7.61600249834989e+001°)
3.71535229097172e+003	(-6.68108144316679e+000dB,-7.67667129137305e+001°)
3.80189396320561e+003	(-7.05123834504264e+000dB,-7.73296791913171e+001°)
3.89045144994280e+003	(-7.41121697632084e+000dB,-7.78535563910105e+001°)
3.98107170553497e+003	(-7.76174573608971e+000dB,-7.83423510262206e+001°)
4.07380277804112e+003	(-8.10349015745936e+000dB,-7.87995439662889e+001°)
4.16869383470335e+003	(-8.43705906301813e+000dB,-7.92281724799808e+001°)
4.26579518801592e+003	(-8.76301013205333e+000dB,-7.96308976367220e+001°)
4.36515832240165e+003	(-9.08185490840024e+000dB,-8.00100599735235e+001°)
4.46683592150962e+003	(-9.39406328951476e+000dB,-8.03677257061043e+001°)
4.57088189614874e+003	(-9.70006754214048e+000dB,-8.07057252793010e+001°)
4.67735141287197e+003	(-1.00002658905934e+001dB,-8.10256856786801e+001°)
4.78630092322637e+003	(-1.02950257219905e+001dB,-8.13290576356810e+001°)
4.89778819368445e+003	(-1.05846864498040e+001dB,-8.16171386327251e+001°)
5.01187233627271e+003	(-1.08695620736118e+001dB,-8.18910924375881e+001°)
5.12861383991364e+003	(-1.11499434692404e+001dB,-8.21519657567115e+001°)
5.24807460249772e+003	(-1.14261004399017e+001dB,-8.24007024865251e+001°)
5.37031796370252e+003	(-1.16982835555368e+001dB,-8.26381559537959e+001°)
5.49540873857624e+003	(-1.19667258044670e+001dB,-8.28650994655800e+001°)
5.62341325190348e+003	(-1.22316440786318e+001dB,-8.30822354327415e+001°)
5.75439937337156e+003	(-1.24932405111741e+001dB,-8.32902032852931e+001°)
5.88843655355588e+003	(-1.27517036828924e+001dB,-8.34895863607518e+001°)
6.02559586074357e+003	(-1.30072097121023e+001dB,-8.36809179165127e+001°)
6.16595001861481e+003	(-1.32599232407081e+001dB,-8.38646863925643e+001°)
6.30957344480192e+003	(-1.35099983277597e+001dB,-8.40413400305964e+001°)
6.45654229034654e+003	(-1.37575792604271e+001dB,-8.42112909388534e+001°)
6.60693448007595e+003	(-1.40028012911555e+001dB,-8.43749186782609e+001°)
6.76082975391980e+003	(-1.42457913087363e+001dB,-8.45325734338822e+001°)
6.91830970918935e+003	(-1.44866684501287e+001dB,-8.46845788262010e+001°)
7.07945784384136e+003	(-1.47255446590837e+001dB,-8.48312344087319e+001°)
7.24435960074989e+003	(-1.49625251969292e+001dB,-8.49728178917581e+001°)
7.41310241300916e+003	(-1.51977091102723e+001dB,-8.51095871263547e+001°)
7.58577575029182e+003	(-1.54311896598441e+001dB,-8.52417818780924e+001°)
7.76247116628690e+003	(-1.56630547142462e+001dB,-8.53696254157903e+001°)
7.94328234724280e+003	(-1.58933871119467e+001dB,-8.54933259372602e+001°)
8.12830516164097e+003	(-1.61222649945152e+001dB,-8.56130778510761e+001°)
8.31763771102669e+003	(-1.63497621137659e+001dB,-8.57290629309131e+001°)
8.51138038202374e+003	(-1.65759481151966e+001dB,-8.58414513568738e+001°)
8.70963589956079e+003	(-1.68008887998656e+001dB,-8.59504026563916e+001°)
8.91250938133744e+003	(-1.70246463666252e+001dB,-8.60560665557343e+001°)
9.12010839355908e+003	(-1.72472796364376e+001dB,-8.61585837517705e+001°)
9.33254300796989e+003	(-1.74688442603271e+001dB,-8.62580866124987e+001°)
9.54992586021434e+003	(-1.76893929123648e+001dB,-8.63546998138181e+001°)
9.77237220955809e+003	(-1.79089754689498e+001dB,-8.64485409191440e+001°)
1.00000000000000e+004	(-1.81276391755262e+001dB,-8.65397209077056e+001°)
Step Information: Run=3  (Run: 3/10)
1.00000000000000e+003	(-1.01426914867337e+001dB,8.10418574011873e+001°)
1.02329299228075e+003	(-9.82552020213401e+000dB,8.07058935105431e+001°)
1.04712854805090e+003	(-9.50131304537504e+000dB,8.03492121976117e+001°)
1.07151930523761e+003	(-9.16955737694189e+000dB,7.99697709277879e+001°)
1.09647819614319e+003	(-8.82969293542801e+000dB,7.95652481614220e+001°)
1.12201845430196e+003	(-8.48110631203529e+000dB,7.91329948241500e+001°)
1.14815362149688e+003	(-8.12312469425174e+000dB,7.86699754748695e+001°)
1.17489755493953e+003	(-7.75500878929449e+000dB,7.81726965806388e+001°)
1.20226443461741e+003	(-7.37594483774973e+000dB,7.76371185549601e+001°)
1.23026877081238e+003	(-6.98503563647538e+000dB,7.70585472159706e+001°)
1.25892541179417e+003	(-6.58129051418564e+000dB,7.64314989846521e+001°)
1.28824955169313e+003	(-6.16361425477208e+000dB,7.57495323463678e+001°)
1.31825673855641e+003	(-5.73079506162710e+000dB,7.50050356701560e+001°)
1.34896288259165e+003	(-5.28149183326596e+000dB,7.41889581819905e+001°)
1.38038426460288e+003	(-4.81422133047832e+000dB,7.32904663956538e+001°)
1.41253754462275e+003	(-4.32734634926635e+000dB,7.22965021808841e+001°)
1.44543977074593e+003	(-3.81906692651801e+000dB,7.11912103260912e+001°)
1.47910838816821e+003	(-3.28741816019007e+000dB,6.99551922492701e+001°)
1.51356124843621e+003	(-2.73028087370442e+000dB,6.85645277375239e+001°)
1.54881661891248e+003	(-2.14541586834450e+000dB,6.69894879258119e+001°)
1.58489319246111e+003	(-1.53054020768419e+000dB,6.51928411943953e+001°)
1.62181009735893e+003	(-8.83477086994502e-001dB,6.31276341824311e+001°)
1.65958690743756e+003	(-2.02432975284135e-001dB,6.07343274691772e+001°)
1.69824365246174e+003	(5.13507674007060e-001dB,5.79372180580918e+001°)
1.73780082874937e+003	(1.26352204921218e+000dB,5.46402803282324e+001°)
1.77827941003892e+003	(2.04359275078899e+000dB,5.07231068099791e+001°)
1.81970085860998e+003	(2.84413850756348e+000dB,4.60389344579004e+001°)
1.86208713666287e+003	(3.64642021555985e+000dB,4.04194463214540e+001°)
1.90546071796325e+003	(4.41780636236639e+000dB,3.36955896873630e+001°)
1.94984459975804e+003	(5.10738823332888e+000dB,2.57481115265379e+001°)
1.99526231496888e+003	(5.64637101113252e+000dB,1.65962757249584e+001°)
2.04173794466953e+003	(5.96028052409422e+000dB,6.49954302816007e+000°)
2.08929613085404e+003	(5.99530708878725e+000dB,-4.01217423035685e+000°)
2.13796208950223e+003	(5.74490866750794e+000dB,-1.42657335459065e+001°)
2.18776162394955e+003	(5.25344824628828e+000dB,-2.36788958894481e+001°)
2.23872113856834e+003	(4.59322672260360e+000dB,-3.19249456293159e+001°)
2.29086765276777e+003	(3.83609912692834e+000dB,-3.89353351272423e+001°)
2.34422881531992e+003	(3.03762911023252e+000dB,-4.48054602634537e+001°)
2.39883291901949e+003	(2.23451711039587e+000dB,-4.96984446949203e+001°)
2.45470891568503e+003	(1.44837879342141e+000dB,-5.37855560071970e+001°)
2.51188643150958e+003	(6.90616807998002e-001dB,-5.72195823259131e+001°)
2.57039578276886e+003	(-3.36732478552891e-002dB,-6.01272312017731e+001°)
2.63026799189538e+003	(-7.23062817466387e-001dB,-6.26100453775849e+001°)
2.69153480392691e+003	(-1.37814640377182e+000dB,-6.47482155761411e+001°)
2.75422870333816e+003	(-2.00056261389836e+000dB,-6.66048103669080e+001°)
2.81838293126445e+003	(-2.59242784987651e+000dB,-6.82295181282999e+001°)
2.88403150312660e+003	(-3.15601693024908e+000dB,-6.96616805457145e+001°)
2.95120922666638e+003	(-3.69358864434665e+000dB,-7.09326562327029e+001°)
3.01995172040201e+003	(-4.20729532507011e+000dB,-7.20676295951676e+001°)
3.09029543251359e+003	(-4.69914056789978e+000dB,-7.30869858203653e+001°)
3.16227766016838e+003	(-5.17096410643735e+000dB,-7.40073555048893e+001°)
3.23593656929628e+003	(-5.62444160762447e+000dB,-7.48424107138500e+001°)
3.31131121482591e+003	(-6.06109228162756e+000dB,-7.56034747242303e+001°)
3.38844156139202e+003	(-6.48229021090773e+000dB,-7.62999919984903e+001°)
3.46736850452531e+003	(-6.88927706982592e+000dB,-7.69398929316998e+001°)
3.54813389233575e+003	(-7.28317494356205e+000dB,-7.75298789665772e+001°)
3.63078054770101e+003	(-7.66499856282746e+000dB,-7.80756470755889e+001°)
3.71535229097172e+003	(-8.03566662443984e+000dB,-7.85820677694629e+001°)
3.80189396320561e+003	(-8.39601207075968e+000dB,-7.90533272398889e+001°)
3.89045144994280e+003	(-8.74679131454680e+000dB,-7.94930416310583e+001°)
3.98107170553497e+003	(-9.08869245647553e+000dB,-7.99043495039094e+001°)
4.07380277804112e+003	(-9.42234257216937e+000dB,-8.02899871228010e+001°)
4.16869383470335e+003	(-9.74831415725641e+000dB,-8.06523501228685e+001°)
4.26579518801592e+003	(-1.00671308204418e+001dB,-8.09935443108430e+001°)
4.36515832240165e+003	(-1.03792723106245e+001dB,-8.13154277427634e+001°)
4.46683592150962e+003	(-1.06851789574228e+001dB,-8.16196457580911e+001°)
4.57088189614874e+003	(-1.09852555967407e+001dB,-8.19076602942934e+001°)
4.67735141287197e+003	(-1.12798750451124e+001dB,-8.21807745319486e+001°)
4.78630092322637e+003	(-1.15693811790185e+001dB,-8.24401537078782e+001°)
4.89778819368445e+003	(-1.18540916684114e+001dB,-8.26868427679885e+001°)
5.01187233627271e+003	(-1.21343004074195e+001dB,-8.29217814013662e+001°)
5.12861383991364e+003	(-1.24102796796436e+001dB,-8.31458168944883e+001°)
