Freq.	V(n003)
Step Information: Hola=100m  (Run: 1/5)
1.00000000000000e+001	(-9.54188864431289e+000dB,-1.79639402331227e+002°)
1.02329299228075e+001	(-9.54185987472314e+000dB,-1.79631004810295e+002°)
1.04712854805090e+001	(-9.54182975002277e+000dB,-1.79622411819241e+002°)
1.07151930523761e+001	(-9.54179820446724e+000dB,-1.79613618816656e+002°)
1.09647819614319e+001	(-9.54176517335983e+000dB,-1.79604621152752e+002°)
1.12201845430196e+001	(-9.54173058657128e+000dB,-1.79595414072171e+002°)
1.14815362149688e+001	(-9.54169436925005e+000dB,-1.79585992705255e+002°)
1.17489755493953e+001	(-9.54165644596451e+000dB,-1.79576352079145e+002°)
1.20226443461741e+001	(-9.54161673608746e+000dB,-1.79566487096782e+002°)
1.23026877081238e+001	(-9.54157515414451e+000dB,-1.79556392549449e+002°)
1.25892541179417e+001	(-9.54153161391631e+000dB,-1.79546063097857e+002°)
1.28824955169313e+001	(-9.54148602272911e+000dB,-1.79535493294997e+002°)
1.31825673855641e+001	(-9.54143828288643e+000dB,-1.79524677557369e+002°)
1.34896288259165e+001	(-9.54138829390354e+000dB,-1.79513610176182e+002°)
1.38038426460288e+001	(-9.54133594941094e+000dB,-1.79502285311329e+002°)
1.41253754462275e+001	(-9.54128113974155e+000dB,-1.79490696985070e+002°)
1.44543977074593e+001	(-9.54122374807791e+000dB,-1.79478839082324e+002°)
1.47910838816821e+001	(-9.54116365229111e+000dB,-1.79466705355653e+002°)
1.51356124843621e+001	(-9.54110072522009e+000dB,-1.79454289401575e+002°)
1.54881661891248e+001	(-9.54103483462560e+000dB,-1.79441584678164e+002°)
1.58489319246111e+001	(-9.54096583968000e+000dB,-1.79428584487867e+002°)
1.62181009735893e+001	(-9.54089359468871e+000dB,-1.79415281982385e+002°)
1.65958690743756e+001	(-9.54081794635096e+000dB,-1.79401670159207e+002°)
1.69824365246174e+001	(-9.54073873440853e+000dB,-1.79387741845449e+002°)
1.73780082874937e+001	(-9.54065579233721e+000dB,-1.79373489711681e+002°)
1.77827941003892e+001	(-9.54056894345095e+000dB,-1.79358906263602e+002°)
1.81970085860998e+001	(-9.54047800343415e+000dB,-1.79343983827012e+002°)
1.86208713666287e+001	(-9.54038278139256e+000dB,-1.79328714556645e+002°)
1.90546071796325e+001	(-9.54028307366813e+000dB,-1.79313090428060e+002°)
1.94984459975804e+001	(-9.54017866940625e+000dB,-1.79297103232416e+002°)
1.99526231496888e+001	(-9.54006935080783e+000dB,-1.79280744570378e+002°)
2.04173794466953e+001	(-9.53995488280090e+000dB,-1.79264005866934e+002°)
2.08929613085404e+001	(-9.53983502383668e+000dB,-1.79246878333247e+002°)
2.13796208950223e+001	(-9.53970952201213e+000dB,-1.79229352990964e+002°)
2.18776162394955e+001	(-9.53957810920537e+000dB,-1.79211420651744e+002°)
2.23872113856834e+001	(-9.53944051079659e+000dB,-1.79193071921688e+002°)
2.29086765276777e+001	(-9.53929643226114e+000dB,-1.79174297206609e+002°)
2.34422881531992e+001	(-9.53914557105834e+000dB,-1.79155086672513e+002°)
2.39883291901949e+001	(-9.53898760781629e+000dB,-1.79135430278027e+002°)
2.45470891568503e+001	(-9.53882220801302e+000dB,-1.79115317754622e+002°)
2.51188643150958e+001	(-9.53864902178880e+000dB,-1.79094738603292e+002°)
2.57039578276886e+001	(-9.53846768335025e+000dB,-1.79073682082536e+002°)
2.63026799189538e+001	(-9.53827781003445e+000dB,-1.79052137216422e+002°)
2.69153480392691e+001	(-9.53807900056258e+000dB,-1.79030092784018e+002°)
2.75422870333816e+001	(-9.53787083404684e+000dB,-1.79007537311292e+002°)
2.81838293126445e+001	(-9.53765287238684e+000dB,-1.78984459058907e+002°)
2.88403150312660e+001	(-9.53742465366183e+000dB,-1.78960846048590e+002°)
2.95120922666638e+001	(-9.53718569631629e+000dB,-1.78936686018305e+002°)
3.01995172040201e+001	(-9.53693549667873e+000dB,-1.78911966440738e+002°)
3.09029543251359e+001	(-9.53667352564703e+000dB,-1.78886674516961e+002°)
3.16227766016838e+001	(-9.53639923174230e+000dB,-1.78860797149350e+002°)
3.23593656929628e+001	(-9.53611203484714e+000dB,-1.78834320973250e+002°)
3.31131121482591e+001	(-9.53581133167526e+000dB,-1.78807232322178e+002°)
3.38844156139202e+001	(-9.53549648597762e+000dB,-1.78779517227620e+002°)
3.46736850452531e+001	(-9.53516683505537e+000dB,-1.78751161425464e+002°)
3.54813389233575e+001	(-9.53482168387628e+000dB,-1.78722150341692e+002°)
3.63078054770101e+001	(-9.53446030673113e+000dB,-1.78692469072101e+002°)
3.71535229097172e+001	(-9.53408194070753e+000dB,-1.78662102412067e+002°)
3.80189396320561e+001	(-9.53368579066609e+000dB,-1.78631034818444e+002°)
3.89045144994280e+001	(-9.53327102377867e+000dB,-1.78599250426865e+002°)
3.98107170553497e+001	(-9.53283676502292e+000dB,-1.78566733022821e+002°)
4.07380277804112e+001	(-9.53238210420573e+000dB,-1.78533466062228e+002°)
4.16869383470335e+001	(-9.53190608459833e+000dB,-1.78499432642595e+002°)
4.26579518801592e+001	(-9.53140770570296e+000dB,-1.78464615509552e+002°)
4.36515832240165e+001	(-9.53088592179953e+000dB,-1.78428997054165e+002°)
4.46683592150962e+001	(-9.53033963701967e+000dB,-1.78392559299789e+002°)
4.57088189614874e+001	(-9.52976770629600e+000dB,-1.78355283895550e+002°)
4.67735141287197e+001	(-9.52916892954866e+000dB,-1.78317152127457e+002°)
4.78630092322638e+001	(-9.52854205268616e+000dB,-1.78278144889723e+002°)
4.89778819368445e+001	(-9.52788576325051e+000dB,-1.78238242693512e+002°)
5.01187233627271e+001	(-9.52719868602538e+000dB,-1.78197425670949e+002°)
5.12861383991364e+001	(-9.52647938548042e+000dB,-1.78155673547987e+002°)
5.24807460249772e+001	(-9.52572635700150e+000dB,-1.78112965654778e+002°)
5.37031796370252e+001	(-9.52493802806256e+000dB,-1.78069280920524e+002°)
5.49540873857624e+001	(-9.52411275312420e+000dB,-1.78024597868660e+002°)
5.62341325190348e+001	(-9.52324881029109e+000dB,-1.77978894609489e+002°)
5.75439937337156e+001	(-9.52234439961696e+000dB,-1.77932148845232e+002°)
5.88843655355588e+001	(-9.52139763729519e+000dB,-1.77884337853882e+002°)
6.02559586074357e+001	(-9.52040655341023e+000dB,-1.77835438506326e+002°)
6.16595001861481e+001	(-9.51936908809276e+000dB,-1.77785427239251e+002°)
6.30957344480192e+001	(-9.51828308641786e+000dB,-1.77734280078739e+002°)
6.45654229034654e+001	(-9.51714629540842e+000dB,-1.77681972622565e+002°)
6.60693448007595e+001	(-9.51595635922094e+000dB,-1.77628480040903e+002°)
6.76082975391980e+001	(-9.51471081404310e+000dB,-1.77573777095089e+002°)
6.91830970918935e+001	(-9.51340708418457e+000dB,-1.77517838109168e+002°)
7.07945784384136e+001	(-9.51204247720209e+000dB,-1.77460636988440e+002°)
7.24435960074988e+001	(-9.51061417811798e+000dB,-1.77402147231372e+002°)
7.41310241300916e+001	(-9.50911924449826e+000dB,-1.77342341904487e+002°)
7.58577575029182e+001	(-9.50755460043333e+000dB,-1.77281193681884e+002°)
7.76247116628690e+001	(-9.50591703239071e+000dB,-1.77218674816292e+002°)
7.94328234724279e+001	(-9.50420318090568e+000dB,-1.77154757179532e+002°)
8.12830516164097e+001	(-9.50240953618104e+000dB,-1.77089412231513e+002°)
8.31763771102669e+001	(-9.50053243124940e+000dB,-1.77022611070637e+002°)
8.51138038202374e+001	(-9.49856803484639e+000dB,-1.76954324409200e+002°)
8.70963589956078e+001	(-9.49651234501095e+000dB,-1.76884522608110e+002°)
8.91250938133743e+001	(-9.49436118150572e+000dB,-1.76813175686872e+002°)
9.12010839355907e+001	(-9.49211017900498e+000dB,-1.76740253324434e+002°)
9.33254300796988e+001	(-9.48975477909627e+000dB,-1.76665724892767e+002°)
9.54992586021433e+001	(-9.48729022227196e+000dB,-1.76589559475488e+002°)
9.77237220955808e+001	(-9.48471153978833e+000dB,-1.76511725875392e+002°)
9.99999999999997e+001	(-9.48201354565003e+000dB,-1.76432192654431e+002°)
1.02329299228075e+002	(-9.47919082717730e+000dB,-1.76350928153297e+002°)
1.04712854805090e+002	(-9.47623773665611e+000dB,-1.76267900512115e+002°)
1.07151930523760e+002	(-9.47314838190603e+000dB,-1.76183077729268e+002°)
1.09647819614318e+002	(-9.46991661626648e+000dB,-1.76096427658743e+002°)
1.12201845430196e+002	(-9.46653602962110e+000dB,-1.76007918080961e+002°)
1.14815362149688e+002	(-9.46299993799707e+000dB,-1.75917516725119e+002°)
1.17489755493953e+002	(-9.45930137295168e+000dB,-1.75825191324708e+002°)
1.20226443461741e+002	(-9.45543307137619e+000dB,-1.75730909664350e+002°)
1.23026877081238e+002	(-9.45138746452630e+000dB,-1.75634639629173e+002°)
1.25892541179416e+002	(-9.44715666718027e+000dB,-1.75536349267581e+002°)
1.28824955169313e+002	(-9.44273246589818e+000dB,-1.75436006853123e+002°)
1.31825673855640e+002	(-9.43810630843718e+000dB,-1.75333580958173e+002°)
1.34896288259165e+002	(-9.43326929072975e+000dB,-1.75229040508525e+002°)
1.38038426460288e+002	(-9.42821214641854e+000dB,-1.75122354882734e+002°)
1.41253754462275e+002	(-9.42292523413935e+000dB,-1.75013493986280e+002°)
1.44543977074592e+002	(-9.41739852512890e+000dB,-1.74902428343357e+002°)
1.47910838816820e+002	(-9.41162159203538e+000dB,-1.74789129194034e+002°)
1.51356124843620e+002	(-9.40558359556538e+000dB,-1.74673568601284e+002°)
1.54881661891248e+002	(-9.39927327284833e+000dB,-1.74555719558320e+002°)
1.58489319246111e+002	(-9.39267892486727e+000dB,-1.74435556109593e+002°)
1.62181009735892e+002	(-9.38578840449962e+000dB,-1.74313053475930e+002°)
1.65958690743755e+002	(-9.37858910431275e+000dB,-1.74188188194899e+002°)
1.69824365246174e+002	(-9.37106794464255e+000dB,-1.74060938255713e+002°)
1.73780082874937e+002	(-9.36321136209888e+000dB,-1.73931283260082e+002°)
1.77827941003892e+002	(-9.35500529788266e+000dB,-1.73799204581637e+002°)
1.81970085860998e+002	(-9.34643518740598e+000dB,-1.73664685535829e+002°)
1.86208713666286e+002	(-9.33748594926112e+000dB,-1.73527711566521e+002°)
1.90546071796324e+002	(-9.32814197573800e+000dB,-1.73388270432858e+002°)
1.94984459975804e+002	(-9.31838712349280e+000dB,-1.73246352421246e+002°)
1.99526231496887e+002	(-9.30820470500638e+000dB,-1.73101950549855e+002°)
2.04173794466952e+002	(-9.29757748130058e+000dB,-1.72955060802531e+002°)
2.08929613085403e+002	(-9.28648765501987e+000dB,-1.72805682361208e+002°)
2.13796208950222e+002	(-9.27491686545619e+000dB,-1.72653817862228e+002°)
2.18776162394954e+002	(-9.26284618428806e+000dB,-1.72499473648938e+002°)
2.23872113856833e+002	(-9.25025611312881e+000dB,-1.72342660055335e+002°)
2.29086765276776e+002	(-9.23712658222821e+000dB,-1.72183391683397e+002°)
2.34422881531991e+002	(-9.22343695165615e+000dB,-1.72021687712036e+002°)
2.39883291901948e+002	(-9.20916601381096e+000dB,-1.71857572200049e+002°)
2.45470891568502e+002	(-9.19429199835277e+000dB,-1.71691074412984e+002°)
2.51188643150957e+002	(-9.17879257961710e+000dB,-1.71522229160016e+002°)
2.57039578276885e+002	(-9.16264488639754e+000dB,-1.71351077139250e+002°)
2.63026799189537e+002	(-9.14582551452901e+000dB,-1.71177665298896e+002°)
2.69153480392690e+002	(-9.12831054275821e+000dB,-1.71002047208152e+002°)
2.75422870333816e+002	(-9.11007555124189e+000dB,-1.70824283434517e+002°)
2.81838293126444e+002	(-9.09109564439375e+000dB,-1.70644441938528e+002°)
2.88403150312659e+002	(-9.07134547661807e+000dB,-1.70462598470712e+002°)
2.95120922666637e+002	(-9.05079928255864e+000dB,-1.70278836977523e+002°)
3.01995172040200e+002	(-9.02943091119404e+000dB,-1.70093250019756e+002°)
3.09029543251358e+002	(-9.00721386476209e+000dB,-1.69905939186928e+002°)
3.16227766016837e+002	(-8.98412134210033e+000dB,-1.69717015521568e+002°)
3.23593656929627e+002	(-8.96012628683988e+000dB,-1.69526599946679e+002°)
3.31131121482590e+002	(-8.93520144116144e+000dB,-1.69334823689938e+002°)
3.38844156139201e+002	(-8.90931940465256e+000dB,-1.69141828705694e+002°)
3.46736850452530e+002	(-8.88245269861954e+000dB,-1.68947768097260e+002°)
3.54813389233574e+002	(-8.85457383663986e+000dB,-1.68752806527806e+002°)
3.63078054770100e+002	(-8.82565540064514e+000dB,-1.68557120626767e+002°)
3.71535229097171e+002	(-8.79567012335368e+000dB,-1.68360899379054e+002°)
3.80189396320559e+002	(-8.76459097687499e+000dB,-1.68164344504303e+002°)
3.89045144994279e+002	(-8.73239126766105e+000dB,-1.67967670813953e+002°)
3.98107170553495e+002	(-8.69904473778363e+000dB,-1.67771106548406e+002°)
4.07380277804111e+002	(-8.66452567273642e+000dB,-1.67574893689958e+002°)
4.16869383470333e+002	(-8.62880901574060e+000dB,-1.67379288243887e+002°)
4.26579518801591e+002	(-8.59187048789020e+000dB,-1.67184560488597e+002°)
4.36515832240164e+002	(-8.55368671544670e+000dB,-1.66990995191571e+002°)
4.46683592150961e+002	(-8.51423536224599e+000dB,-1.66798891778251e+002°)
4.57088189614873e+002	(-8.47349526870798e+000dB,-1.66608564462337e+002°)
4.67735141287196e+002	(-8.43144659614019e+000dB,-1.66420342325630e+002°)
4.78630092322636e+002	(-8.38807097643747e+000dB,-1.66234569342127e+002°)
4.89778819368444e+002	(-8.34335166680325e+000dB,-1.66051604350951e+002°)
5.01187233627270e+002	(-8.29727370885288e+000dB,-1.65871820962611e+002°)
5.12861383991362e+002	(-8.24982409192375e+000dB,-1.65695607406207e+002°)
5.24807460249770e+002	(-8.20099191959338e+000dB,-1.65523366303247e+002°)
5.37031796370250e+002	(-8.15076857958763e+000dB,-1.65355514375431e+002°)
5.49540873857622e+002	(-8.09914791540714e+000dB,-1.65192482072395e+002°)
5.62341325190346e+002	(-8.04612640007478e+000dB,-1.65034713128636e+002°)
5.75439937337154e+002	(-7.99170331016093e+000dB,-1.64882664031129e+002°)
5.88843655355586e+002	(-7.93588090032829e+000dB,-1.64736803412755e+002°)
6.02559586074355e+002	(-7.87866457692802e+000dB,-1.64597611357067e+002°)
6.16595001861479e+002	(-7.82006307001687e+000dB,-1.64465578616650e+002°)
6.30957344480190e+002	(-7.76008860291381e+000dB,-1.64341205746093e+002°)
6.45654229034652e+002	(-7.69875705843155e+000dB,-1.64225002145715e+002°)
6.60693448007592e+002	(-7.63608814084123e+000dB,-1.64117485014967e+002°)
6.76082975391978e+002	(-7.57210553262257e+000dB,-1.64019178220952e+002°)
6.91830970918933e+002	(-7.50683704513977e+000dB,-1.63930611071840e+002°)
7.07945784384134e+002	(-7.44031476242521e+000dB,-1.63852317011650e+002°)
7.24435960074986e+002	(-7.37257517677263e+000dB,-1.63784832216650e+002°)
7.41310241300914e+002	(-7.30365931548502e+000dB,-1.63728694114213e+002°)
7.58577575029180e+002	(-7.23361285826998e+000dB,-1.63684439815883e+002°)
7.76247116628688e+002	(-7.16248624326061e+000dB,-1.63652604463415e+002°)
7.94328234724277e+002	(-7.09033476194286e+000dB,-1.63633719499257e+002°)
8.12830516164095e+002	(-7.01721864123524e+000dB,-1.63628310856131e+002°)
8.31763771102666e+002	(-6.94320311231384e+000dB,-1.63636897070082e+002°)
8.51138038202372e+002	(-6.86835846486092e+000dB,-1.63659987322634e+002°)
8.70963589956076e+002	(-6.79276008607041e+000dB,-1.63698079409077e+002°)
8.91250938133741e+002	(-6.71648848328447e+000dB,-1.63751657643855e+002°)
9.12010839355905e+002	(-6.63962928923675e+000dB,-1.63821190696410e+002°)
9.33254300796986e+002	(-6.56227324892443e+000dB,-1.63907129371461e+002°)
9.54992586021431e+002	(-6.48451618706951e+000dB,-1.64009904331690e+002°)
9.77237220955805e+002	(-6.40645895467233e+000dB,-1.64129923766130e+002°)
9.99999999999994e+002	(-6.32820735392565e+000dB,-1.64267571017152e+002°)
1.02329299228075e+003	(-6.24987203995841e+000dB,-1.64423202162225e+002°)
1.04712854805089e+003	(-6.17156839789380e+000dB,-1.64597143563990e+002°)
1.07151930523760e+003	(-6.09341639436593e+000dB,-1.64789689394607e+002°)
1.09647819614318e+003	(-6.01554040152888e+000dB,-1.65001099141671e+002°)
1.12201845430196e+003	(-5.93806899247243e+000dB,-1.65231595108383e+002°)
1.14815362149688e+003	(-5.86113470636775e+000dB,-1.65481359917888e+002°)
1.17489755493952e+003	(-5.78487378215525e+000dB,-1.65750534037504e+002°)
1.20226443461741e+003	(-5.70942585908905e+000dB,-1.66039213336510e+002°)
1.23026877081237e+003	(-5.63493364314291e+000dB,-1.66347446693625e+002°)
1.25892541179416e+003	(-5.56154253803510e+000dB,-1.66675233679549e+002°)
1.28824955169313e+003	(-5.48940023992462e+000dB,-1.67022522328517e+002°)
1.31825673855640e+003	(-5.41865629526000e+000dB,-1.67389207030188e+002°)
1.34896288259165e+003	(-5.34946162131181e+000dB,-1.67775126561485e+002°)
1.38038426460288e+003	(-5.28196798950824e+000dB,-1.68180062291229e+002°)
1.41253754462275e+003	(-5.21632747234142e+000dB,-1.68603736585142e+002°)
1.44543977074592e+003	(-5.15269185470510e+000dB,-1.69045811443166e+002°)
1.47910838816820e+003	(-5.09121201150284e+000dB,-1.69505887399726e+002°)
1.51356124843620e+003	(-5.03203725400757e+000dB,-1.69983502722433e+002°)
1.54881661891247e+003	(-4.97531464805940e+000dB,-1.70478132938668e+002°)
1.58489319246110e+003	(-4.92118830797115e+000dB,-1.70989190723237e+002°)
1.62181009735892e+003	(-4.86979867094737e+000dB,-1.71516026176327e+002°)
1.65958690743755e+003	(-4.82128175743778e+000dB,-1.72057927519122e+002°)
1.69824365246173e+003	(-4.77576842366215e+000dB,-1.72614122230344e+002°)
1.73780082874936e+003	(-4.73338361329869e+000dB,-1.73183778643088e+002°)
1.77827941003891e+003	(-4.69424561589073e+000dB,-1.73766008014969e+002°)
1.81970085860997e+003	(-4.65846534010704e+000dB,-1.74359867079616e+002°)
1.86208713666286e+003	(-4.62614561030741e+000dB,-1.74964361080360e+002°)
1.90546071796323e+003	(-4.59738049521614e+000dB,-1.75578447278272e+002°)
1.94984459975803e+003	(-4.57225467741404e+000dB,-1.76201038918016e+002°)
1.99526231496887e+003	(-4.55084287229123e+000dB,-1.76831009631007e+002°)
2.04173794466952e+003	(-4.53320930480522e+000dB,-1.77467198241789e+002°)
2.08929613085403e+003	(-4.51940725166898e+000dB,-1.78108413937972e+002°)
2.13796208950222e+003	(-4.50947865599281e+000dB,-1.78753441756997e+002°)
2.18776162394954e+003	(-4.50345382033854e+000dB,-1.79401048335274e+002°)
2.23872113856832e+003	(-4.50135118310293e+000dB,1.79950012139270e+002°)
2.29086765276776e+003	(-4.50317718173327e+000dB,1.79300991838321e+002°)
2.34422881531991e+003	(-4.50892620512248e+000dB,1.78653143130842e+002°)
2.39883291901947e+003	(-4.51858063583821e+000dB,1.78007712421449e+002°)
2.45470891568501e+003	(-4.53211098164071e+000dB,1.77365934054781e+002°)
2.51188643150956e+003	(-4.54947609400952e+000dB,1.76729024355703e+002°)
2.57039578276885e+003	(-4.57062347030288e+000dB,1.76098175869008e+002°)
2.63026799189536e+003	(-4.59548963467997e+000dB,1.75474551860199e+002°)
2.69153480392690e+003	(-4.62400059186172e+000dB,1.74859281130407e+002°)
2.75422870333815e+003	(-4.65607234686585e+000dB,1.74253453195854e+002°)
2.81838293126443e+003	(-4.69161148295467e+000dB,1.73658113870001e+002°)
2.88403150312659e+003	(-4.73051578954883e+000dB,1.73074261284741e+002°)
2.95120922666636e+003	(-4.77267493143128e+000dB,1.72502842372536e+002°)
3.01995172040199e+003	(-4.81797115033813e+000dB,1.71944749828836e+002°)
3.09029543251357e+003	(-4.86627999005768e+000dB,1.71400819561812e+002°)
3.16227766016836e+003	(-4.91747103634731e+000dB,1.70871828633570e+002°)
3.23593656929626e+003	(-4.97140866307601e+000dB,1.70358493686739e+002°)
3.31131121482589e+003	(-5.02795277648226e+000dB,1.69861469846107e+002°)
3.38844156139200e+003	(-5.08695954975753e+000dB,1.69381350081493e+002°)
3.46736850452529e+003	(-5.14828214028525e+000dB,1.68918665010699e+002°)
3.54813389233573e+003	(-5.21177138210527e+000dB,1.68473883121976e+002°)
3.63078054770099e+003	(-5.27727644585516e+000dB,1.68047411387623e+002°)
3.71535229097170e+003	(-5.34464545763435e+000dB,1.67639596238704e+002°)
3.80189396320558e+003	(-5.41372606680436e+000dB,1.67250724859717e+002°)
3.89045144994278e+003	(-5.48436595038634e+000dB,1.66881026742436e+002°)
3.98107170553494e+003	(-5.55641323841191e+000dB,1.66530675401668e+002°)
4.07380277804110e+003	(-5.62971684196087e+000dB,1.66199790080311e+002°)
4.16869383470332e+003	(-5.70412666640749e+000dB,1.65888437138655e+002°)
4.26579518801589e+003	(-5.77949370649247e+000dB,1.65596630601526e+002°)
4.36515832240162e+003	(-5.85567006686523e+000dB,1.65324331040431e+002°)
4.46683592150960e+003	(-5.93250906582501e+000dB,1.65071441733791e+002°)
4.57088189614871e+003	(-6.00986579380524e+000dB,1.64837801403910e+002°)
4.67735141287194e+003	(-6.08759876054008e+000dB,1.64623174864005e+002°)
4.78630092322634e+003	(-6.16557325980219e+000dB,1.64427247769226e+002°)
4.89778819368442e+003	(-6.24366614100157e+000dB,1.64249637529552e+002°)
5.01187233627268e+003	(-6.32176954520174e+000dB,1.64089930432604e+002°)
5.12861383991361e+003	(-6.39978974982068e+000dB,1.63947735215093e+002°)
5.24807460249768e+003	(-6.47763997202555e+000dB,1.63822718512071e+002°)
