Freq.	V(n008)
Step Information: Hola=1  (Run: 1/2)
1.00000000000000e+000	(-8.49758974880596e-002dB,1.07535984018074e+000°)
1.02329299228075e+000	(-8.48549274048099e-002dB,1.10039887676259e+000°)
1.04712854805090e+000	(-8.47282577415736e-002dB,1.12602048161343e+000°)
1.07151930523761e+000	(-8.45956200362173e-002dB,1.15223817689238e+000°)
1.09647819614318e+000	(-8.44567331890304e-002dB,1.17906579632810e+000°)
1.12201845430196e+000	(-8.43113028684031e-002dB,1.20651749223390e+000°)
1.14815362149688e+000	(-8.41590208887422e-002dB,1.23460774266708e+000°)
1.17489755493953e+000	(-8.39995645593074e-002dB,1.26335135873826e+000°)
1.20226443461741e+000	(-8.38325960024038e-002dB,1.29276349207026e+000°)
1.23026877081238e+000	(-8.36577614397436e-002dB,1.32285964240948e+000°)
1.25892541179417e+000	(-8.34746904451774e-002dB,1.35365566539149e+000°)
1.28824955169313e+000	(-8.32829951626583e-002dB,1.38516778046377e+000°)
1.31825673855641e+000	(-8.30822694873816e-002dB,1.41741257896579e+000°)
1.34896288259165e+000	(-8.28720882086936e-002dB,1.45040703237004e+000°)
1.38038426460288e+000	(-8.26520061128475e-002dB,1.48416850068467e+000°)
1.41253754462275e+000	(-8.24215570438979e-002dB,1.51871474101964e+000°)
1.44543977074593e+000	(-8.21802529204411e-002dB,1.55406391631769e+000°)
1.47910838816821e+000	(-8.19275827066082e-002dB,1.59023460425170e+000°)
1.51356124843621e+000	(-8.16630113348417e-002dB,1.62724580629071e+000°)
1.54881661891248e+000	(-8.13859785784652e-002dB,1.66511695693309e+000°)
1.58489319246111e+000	(-8.10958978714220e-002dB,1.70386793311058e+000°)
1.62181009735893e+000	(-8.07921550731271e-002dB,1.74351906376258e+000°)
1.65958690743756e+000	(-8.04741071755932e-002dB,1.78409113958005e+000°)
1.69824365246174e+000	(-8.01410809501943e-002dB,1.82560542292359e+000°)
1.73780082874937e+000	(-7.97923715315700e-002dB,1.86808365790857e+000°)
1.77827941003892e+000	(-7.94272409353710e-002dB,1.91154808066575e+000°)
1.81970085860998e+000	(-7.90449165069992e-002dB,1.95602142976804e+000°)
1.86208713666287e+000	(-7.86445892983703e-002dB,2.00152695683026e+000°)
1.90546071796325e+000	(-7.82254123688429e-002dB,2.04808843727489e+000°)
1.94984459975804e+000	(-7.77864990076443e-002dB,2.09573018126618e+000°)
1.99526231496888e+000	(-7.73269208732391e-002dB,2.14447704480657e+000°)
2.04173794466953e+000	(-7.68457060467513e-002dB,2.19435444099810e+000°)
2.08929613085404e+000	(-7.63418369948597e-002dB,2.24538835145976e+000°)
2.13796208950223e+000	(-7.58142484385044e-002dB,2.29760533790249e+000°)
2.18776162394955e+000	(-7.52618251225839e-002dB,2.35103255385454e+000°)
2.23872113856834e+000	(-7.46833994828888e-002dB,2.40569775653174e+000°)
2.29086765276777e+000	(-7.40777492048713e-002dB,2.46162931885191e+000°)
2.34422881531992e+000	(-7.34435946696917e-002dB,2.51885624157996e+000°)
2.39883291901949e+000	(-7.27795962826411e-002dB,2.57740816560348e+000°)
2.45470891568503e+000	(-7.20843516783046e-002dB,2.63731538432509e+000°)
2.51188643150958e+000	(-7.13563927969436e-002dB,2.69860885616787e+000°)
2.57039578276886e+000	(-7.05941828265911e-002dB,2.76132021717892e+000°)
2.63026799189538e+000	(-6.97961130046068e-002dB,2.82548179372437e+000°)
2.69153480392691e+000	(-6.89604992724377e-002dB,2.89112661525934e+000°)
2.75422870333816e+000	(-6.80855787771456e-002dB,2.95828842716420e+000°)
2.81838293126445e+000	(-6.71695062129813e-002dB,3.02700170362677e+000°)
2.88403150312660e+000	(-6.62103499954059e-002dB,3.09730166055954e+000°)
2.95120922666638e+000	(-6.52060882609094e-002dB,3.16922426852906e+000°)
3.01995172040201e+000	(-6.41546046844493e-002dB,3.24280626568214e+000°)
3.09029543251359e+000	(-6.30536841065938e-002dB,3.31808517064233e+000°)
3.16227766016837e+000	(-6.19010079622273e-002dB,3.39509929535974e+000°)
3.23593656929628e+000	(-6.06941495019591e-002dB,3.47388775788213e+000°)
3.31131121482591e+000	(-5.94305687973889e-002dB,3.55449049502369e+000°)
3.38844156139202e+000	(-5.81076075208486e-002dB,3.63694827489866e+000°)
3.46736850452531e+000	(-5.67224834899513e-002dB,3.72130270928927e+000°)
3.54813389233575e+000	(-5.52722849667644e-002dB,3.80759626581166e+000°)
3.63078054770101e+000	(-5.37539647013262e-002dB,3.89587227983723e+000°)
3.71535229097172e+000	(-5.21643337086444e-002dB,3.98617496613454e+000°)
3.80189396320560e+000	(-5.05000547677375e-002dB,4.07854943018274e+000°)
3.89045144994280e+000	(-4.87576356313606e-002dB,4.17304167910423e+000°)
3.98107170553496e+000	(-4.69334219342008e-002dB,4.26969863217232e+000°)
4.07380277804112e+000	(-4.50235897869984e-002dB,4.36856813082764e+000°)
4.16869383470335e+000	(-4.30241380440151e-002dB,4.46969894814891e+000°)
4.26579518801592e+000	(-4.09308802300111e-002dB,4.57314079770909e+000°)
4.36515832240165e+000	(-3.87394361133831e-002dB,4.67894434174404e+000°)
4.46683592150962e+000	(-3.64452229110581e-002dB,4.78716119856158e+000°)
4.57088189614874e+000	(-3.40434461103987e-002dB,4.89784394910358e+000°)
4.67735141287197e+000	(-3.15290898932024e-002dB,5.01104614257802e+000°)
4.78630092322637e+000	(-2.88969071460648e-002dB,5.12682230105888e+000°)
4.89778819368445e+000	(-2.61414090409475e-002dB,5.24522792296182e+000°)
5.01187233627271e+000	(-2.32568541701402e-002dB,5.36631948527553e+000°)
5.12861383991364e+000	(-2.02372372178438e-002dB,5.49015444443953e+000°)
5.24807460249771e+000	(-1.70762771516435e-002dB,5.61679123574122e+000°)
5.37031796370252e+000	(-1.37674049158881e-002dB,5.74628927109458e+000°)
5.49540873857623e+000	(-1.03037506091762e-002dB,5.87870893506245e+000°)
5.62341325190348e+000	(-6.67813012678097e-003dB,6.01411157896028e+000°)
5.75439937337156e+000	(-2.88303124979391e-003dB,6.15255951289122e+000°)
5.88843655355588e+000	(1.08940083863011e-003dB,6.29411599552079e+000°)
6.02559586074356e+000	(5.24737862947977e-003dB,6.43884522141697e+000°)
6.16595001861481e+000	(9.59948797593913e-003dB,6.58681230574534e+000°)
6.30957344480192e+000	(1.41547044140816e-002dB,6.73808326612011e+000°)
6.45654229034654e+000	(1.89224101358094e-002dB,6.89272500137122e+000°)
6.60693448007594e+000	(2.39124116345311e-002dB,7.05080526698967e+000°)
6.76082975391980e+000	(2.91349580445503e-002dB,7.21239264699969e+000°)
6.91830970918935e+000	(3.46007601941392e-002dB,7.37755652197767e+000°)
7.07945784384136e+000	(4.03210103929645e-002dB,7.54636703293103e+000°)
7.24435960074988e+000	(4.63074029743311e-002dB,7.71889504072539e+000°)
7.41310241300916e+000	(5.25721556122800e-002dB,7.89521208073574e+000°)
7.58577575029182e+000	(5.91280314334824e-002dB,8.07539031237172e+000°)
7.76247116628690e+000	(6.59883619430382e-002dB,8.25950246310512e+000°)
7.94328234724279e+000	(7.31670707840995e-002dB,8.44762176662242e+000°)
8.12830516164097e+000	(8.06786983481400e-002dB,8.63982189466602e+000°)
8.31763771102669e+000	(8.85384272549716e-002dB,8.83617688214956e+000°)
8.51138038202374e+000	(9.67621087180517e-002dB,9.03676104507084e+000°)
8.70963589956078e+000	(1.05366289811311e-001dB,9.24164889073532e+000°)
8.91250938133743e+000	(1.14368241651524e-001dB,9.45091501978022e+000°)
9.12010839355907e+000	(1.23785988509811e-001dB,9.66463401944970e+000°)
9.33254300796988e+000	(1.33638337862535e-001dB,9.88288034753992e+000°)
9.54992586021433e+000	(1.43944911393108e-001dB,1.01057282064296e+001°)
9.77237220955808e+000	(1.54726176950535e-001dB,1.03332514065358e+001°)
9.99999999999997e+000	(1.66003481471542e-001dB,1.05655232185395e+001°)
1.02329299228075e+001	(1.77799084869003e-001dB,1.08026162136755e+001°)
1.04712854805090e+001	(1.90136194887363e-001dB,1.10446020913418e+001°)
1.07151930523760e+001	(2.03039002922338e-001dB,1.12915514932542e+001°)
1.09647819614318e+001	(2.16532720800608e-001dB,1.15435338033426e+001°)
1.12201845430196e+001	(2.30643618509150e-001dB,1.18006169325097e+001°)
1.14815362149688e+001	(2.45399062863953e-001dB,1.20628670873923e+001°)
1.17489755493953e+001	(2.60827557100275e-001dB,1.23303485221620e+001°)
1.20226443461741e+001	(2.76958781365609e-001dB,1.26031232724000e+001°)
1.23026877081238e+001	(2.93823634090360e-001dB,1.28812508700173e+001°)
1.25892541179416e+001	(3.11454274208164e-001dB,1.31647880381554e+001°)
1.28824955169313e+001	(3.29884164191284e-001dB,1.34537883649406e+001°)
1.31825673855640e+001	(3.49148113864070e-001dB,1.37483019549294e+001°)
1.34896288259165e+001	(3.69282324950516e-001dB,1.40483750570226e+001°)
1.38038426460288e+001	(3.90324436307253e-001dB,1.43540496675631e+001°)
1.41253754462275e+001	(4.12313569789404e-001dB,1.46653631072965e+001°)
1.44543977074592e+001	(4.35290376689807e-001dB,1.49823475707877e+001°)
1.47910838816820e+001	(4.59297084686849e-001dB,1.53050296468224e+001°)
1.51356124843620e+001	(4.84377545233158e-001dB,1.56334298082781e+001°)
1.54881661891248e+001	(5.10577281309193e-001dB,1.59675618698344e+001°)
1.58489319246111e+001	(5.37943535463152e-001dB,1.63074324118409e+001°)
1.62181009735892e+001	(5.66525318052436e-001dB,1.66530401685450e+001°)
1.65958690743755e+001	(5.96373455597278e-001dB,1.70043753787840e+001°)
1.69824365246174e+001	(6.27540639154383e-001dB,1.73614190971536e+001°)
1.73780082874937e+001	(6.60081472612390e-001dB,1.77241424635024e+001°)
1.77827941003892e+001	(6.94052520808374e-001dB,1.80925059284801e+001°)
1.81970085860998e+001	(7.29512357360988e-001dB,1.84664584326883e+001°)
1.86208713666286e+001	(7.66521612111878e-001dB,1.88459365367967e+001°)
1.90546071796324e+001	(8.05143018067922e-001dB,1.92308634997965e+001°)
1.94984459975804e+001	(8.45441457726002e-001dB,1.96211483022434e+001°)
1.99526231496887e+001	(8.87484008670211e-001dB,2.00166846111531e+001°)
2.04173794466952e+001	(9.31339988316682e-001dB,2.04173496827773e+001°)
2.08929613085403e+001	(9.77080997686422e-001dB,2.08230031991851e+001°)
2.13796208950222e+001	(1.02478096407668e+000dB,2.12334860340842e+001°)
2.18776162394954e+001	(1.07451618249394e+000dB,2.16486189428024e+001°)
2.23872113856833e+001	(1.12636535570572e+000dB,2.20682011707789e+001°)
2.29086765276776e+001	(1.18040963274875e+000dB,2.24920089741834e+001°)
2.34422881531991e+001	(1.23673264572059e+000dB,2.29197940455422e+001°)
2.39883291901948e+001	(1.29542054464518e+000dB,2.33512818362479e+001°)
2.45470891568502e+001	(1.35656203017911e+000dB,2.37861697668609e+001°)
2.51188643150957e+001	(1.42024838387012e+000dB,2.42241253148124e+001°)
2.57039578276885e+001	(1.48657349562399e+000dB,2.46647839677794e+001°)
2.63026799189537e+001	(1.55563388794889e+000dB,2.51077470293440e+001°)
2.69153480392690e+001	(1.62752873644798e+000dB,2.55525792617620e+001°)
2.75422870333815e+001	(1.70235988589118e+000dB,2.59988063485397e+001°)
2.81838293126444e+001	(1.78023186102617e+000dB,2.64459121571472e+001°)
2.88403150312659e+001	(1.86125187106830e+000dB,2.68933357794789e+001°)
2.95120922666637e+001	(1.94552980653498e+000dB,2.73404683246238e+001°)
3.01995172040200e+001	(2.03317822673729e+000dB,2.77866494350156e+001°)
3.09029543251358e+001	(2.12431233581092e+000dB,2.82311634931605e+001°)
3.16227766016837e+001	(2.21904994462227e+000dB,2.86732354817443e+001°)
3.23593656929627e+001	(2.31751141521400e+000dB,2.91120264550447e+001°)
3.31131121482590e+001	(2.41981958362306e+000dB,2.95466285741548e+001°)
3.38844156139201e+001	(2.52609965586271e+000dB,2.99760596524716e+001°)
3.46736850452530e+001	(2.63647907060633e+000dB,3.03992571513783e+001°)
3.54813389233574e+001	(2.75108732053545e+000dB,3.08150715588238e+001°)
3.63078054770100e+001	(2.87005572240537e+000dB,3.12222590758235e+001°)
3.71535229097171e+001	(2.99351712352157e+000dB,3.16194735276865e+001°)
3.80189396320559e+001	(3.12160552944747e+000dB,3.20052574083121e+001°)
3.89045144994279e+001	(3.25445563423539e+000dB,3.23780319572674e+001°)
3.98107170553495e+001	(3.39220223016907e+000dB,3.27360861610540e+001°)
4.07380277804111e+001	(3.53497946875987e+000dB,3.30775645624722e+001°)
4.16869383470333e+001	(3.68291993834296e+000dB,3.34004537560874e+001°)
4.26579518801591e+001	(3.83615351584746e+000dB,3.37025674446703e+001°)
4.36515832240164e+001	(3.99480594089921e+000dB,3.39815299327151e+001°)
4.46683592150961e+001	(4.15899704902682e+000dB,3.42347579410317e+001°)
4.57088189614873e+001	(4.32883858703659e+000dB,3.44594406440630e+001°)
4.67735141287196e+001	(4.50443151723138e+000dB,3.46525178634477e+001°)
4.78630092322636e+001	(4.68586269763635e+000dB,3.48106564032237e+001°)
4.89778819368444e+001	(4.87320080245752e+000dB,3.49302245921284e+001°)
5.01187233627270e+001	(5.06649132032811e+000dB,3.50072652173970e+001°)
5.12861383991362e+001	(5.26575043742168e+000dB,3.50374672065475e+001°)
5.24807460249770e+001	(5.47095757863409e+000dB,3.50161366576907e+001°)
5.37031796370250e+001	(5.68204634364213e+000dB,3.49381681587552e+001°)
5.49540873857622e+001	(5.89889353791922e+000dB,3.47980178019963e+001°)
5.62341325190346e+001	(6.12130596541126e+000dB,3.45896799288746e+001°)
5.75439937337154e+001	(6.34900462594955e+000dB,3.43066704744976e+001°)
5.88843655355586e+001	(6.58160595661538e+000dB,3.39420208661898e+001°)
6.02559586074355e+001	(6.81859978756204e+000dB,3.34882878102712e+001°)
6.16595001861479e+001	(7.05932377151378e+000dB,3.29375860024596e+001°)
6.30957344480190e+001	(7.30293422368808e+000dB,3.22816528109730e+001°)
6.45654229034652e+001	(7.54837361638936e+000dB,3.15119562257720e+001°)
6.60693448007593e+001	(7.79433546090016e+000dB,3.06198596351657e+001°)
6.76082975391978e+001	(8.03922803437298e+000dB,2.95968588764332e+001°)
6.91830970918933e+001	(8.28113941994589e+000dB,2.84349078200876e+001°)
7.07945784384134e+001	(8.51780764333178e+000dB,2.71268474322621e+001°)
7.24435960074986e+001	(8.74660125839386e+000dB,2.56669483744385e+001°)
7.41310241300914e+001	(8.96451738429554e+000dB,2.40515670347980e+001°)
7.58577575029180e+001	(9.16820556890126e+000dB,2.22798978554129e+001°)
7.76247116628688e+001	(9.35402636246033e+000dB,2.03547802416771e+001°)
7.94328234724277e+001	(9.51815235106201e+000dB,1.82834876260975e+001°)
8.12830516164095e+001	(9.65671581325991e+000dB,1.60783942383737e+001°)
8.31763771102667e+001	(9.76600064619875e+000dB,1.37573908090592e+001°)
8.51138038202372e+001	(9.84266710698634e+000dB,1.13439160054813e+001°)
8.70963589956076e+001	(9.88398783656065e+000dB,8.86649758148086e+000°)
8.91250938133741e+001	(9.88806544253481e+000dB,6.35776108661406e+000°)
9.12010839355905e+001	(9.85399898585458e+000dB,3.85295681291905e+000°)
9.33254300796986e+001	(9.78197146263791e+000dB,1.38815520067494e+000°)
9.54992586021431e+001	(9.67324275775329e+000dB,-1.00166355554755e+000°)
9.77237220955805e+001	(9.53004952321952e+000dB,-3.28437488615889e+000°)
9.99999999999995e+001	(9.35542996996400e+000dB,-5.43211401856890e+000°)
1.02329299228075e+002	(9.15300281883338e+000dB,-7.42218435829135e+000°)
1.04712854805089e+002	(8.92673305765037e+000dB,-9.23743596348408e+000°)
1.07151930523760e+002	(8.68071313690485e+000dB,-1.08661692303027e+001°)
1.09647819614318e+002	(8.41897949799771e+000dB,-1.23016768552453e+001°)
1.12201845430196e+002	(8.14537423915215e+000dB,-1.35415584966114e+001°)
1.14815362149688e+002	(7.86345297250410e+000dB,-1.45869339555089e+001°)
1.17489755493952e+002	(7.57643389300509e+000dB,-1.54416543080596e+001°)
1.20226443461741e+002	(7.28717994135127e+000dB,-1.61115780905982e+001°)
1.23026877081237e+002	(6.99820513389245e+000dB,-1.66039496858057e+001°)
1.25892541179416e+002	(6.71169682979851e+000dB,-1.69268936671473e+001°)
1.28824955169313e+002	(6.42954715432830e+000dB,-1.70890230016145e+001°)
1.31825673855640e+002	(6.15338845020122e+000dB,-1.70991497835335e+001°)
1.34896288259165e+002	(5.88462916304126e+000dB,-1.69660829265342e+001°)
1.38038426460288e+002	(5.62448783320968e+000dB,-1.66984962943349e+001°)
1.41253754462275e+002	(5.37402383022475e+000dB,-1.63048517243968e+001°)
1.44543977074592e+002	(5.13416415397003e+000dB,-1.57933633030583e+001°)
1.47910838816820e+002	(4.90572609072128e+000dB,-1.51719914536136e+001°)
1.51356124843620e+002	(4.68943580754927e+000dB,-1.44484575382775e+001°)
1.54881661891247e+002	(4.48594314545274e+000dB,-1.36302715753646e+001°)
1.58489319246110e+002	(4.29583296913408e+000dB,-1.27247672758328e+001°)
1.62181009735892e+002	(4.11963347883696e+000dB,-1.17391399147667e+001°)
1.65958690743755e+002	(3.95782190731299e+000dB,-1.06804836132636e+001°)
1.69824365246173e+002	(3.81082802583845e+000dB,-9.55582546472749e+000°)
1.73780082874936e+002	(3.67903587485369e+000dB,-8.37215464763357e+000°)
1.77827941003891e+002	(3.56278412112215e+000dB,-7.13644526704374e+000°)
1.81970085860997e+002	(3.46236542548591e+000dB,-5.85567219322305e+000°)
1.86208713666286e+002	(3.37802518303879e+000dB,-4.53681963879848e+000°)
1.90546071796323e+002	(3.30995996980495e+000dB,-3.18688264795310e+000°)
1.94984459975803e+002	(3.25831599567052e+000dB,-1.81286206315401e+000°)
1.99526231496887e+002	(3.22318782163104e+000dB,-4.21753882142194e-001°)
2.04173794466952e+002	(3.20461755042105e+000dB,9.79465790219746e-001°)
2.08929613085403e+002	(3.20259464412715e+000dB,2.38385876577918e+000°)
2.13796208950222e+002	(3.21705646221018e+000dB,3.78454419564630e+000°)
2.18776162394954e+002	(3.24788955093440e+000dB,5.17471775223568e+000°)
2.23872113856832e+002	(3.29493165331575e+000dB,6.54766895547653e+000°)
2.29086765276776e+002	(3.35797435031549e+000dB,7.89679513474536e+000°)
2.34422881531991e+002	(3.43676619161351e+000dB,9.21561069722730e+000°)
2.39883291901947e+002	(3.53101612985165e+000dB,1.04977506108696e+001°)
2.45470891568501e+002	(3.64039703674342e+000dB,1.17369672884400e+001°)
2.51188643150956e+002	(3.76454905294784e+000dB,1.29271203613019e+001°)
2.57039578276885e+002	(3.90308250521250e+000dB,1.40621591421318e+001°)
2.63026799189536e+002	(4.05558011230751e+000dB,1.51360978843485e+001°)
2.69153480392690e+002	(4.22159819349142e+000dB,1.61429842481657e+001°)
2.75422870333815e+002	(4.40066658726979e+000dB,1.70768616821924e+001°)
2.81838293126443e+002	(4.59228698177406e+000dB,1.79317267370715e+001°)
2.88403150312659e+002	(4.79592934958075e+000dB,1.87014826644519e+001°)
2.95120922666637e+002	(5.01102616857109e+000dB,1.93798910499947e+001°)
3.01995172040200e+002	(5.23696409757432e+000dB,1.99605237215127e+001°)
3.09029543251357e+002	(5.47307276424389e+000dB,2.04367178084802e+001°)
3.16227766016836e+002	(5.71861031955920e+000dB,2.08015376592791e+001°)
3.23593656929626e+002	(5.97274542937993e+000dB,2.10477484012762e+001°)
3.31131121482589e+002	(6.23453542562088e+000dB,2.11678073040221e+001°)
3.38844156139200e+002	(6.50290045250303e+000dB,2.11538808046222e+001°)
3.46736850452529e+002	(6.77659365099680e+000dB,2.09978970585460e+001°)
3.54813389233573e+002	(7.05416777141733e+000dB,2.06916460860168e+001°)
3.63078054770099e+002	(7.33393914336657e+000dB,2.02269417484120e+001°)
3.71535229097170e+002	(7.61395072016691e+000dB,1.95958614459623e+001°)
3.80189396320558e+002	(7.89193699656798e+000dB,1.87910798052376e+001°)
3.89045144994278e+002	(8.16529498105472e+000dB,1.78063105707136e+001°)
3.98107170553494e+002	(8.43106701392754e+000dB,1.66368648992979e+001°)
4.07380277804110e+002	(8.68594284704073e+000dB,1.52803225458372e+001°)
4.16869383470332e+002	(8.92628962973322e+000dB,1.37372935557516e+001°)
4.26579518801589e+002	(9.14821863789814e+000dB,1.20122217391949e+001°)
4.36515832240163e+002	(9.34769592760134e+000dB,1.01141495017789e+001°)
4.46683592150960e+002	(9.52069981960861e+000dB,8.05733236347132e+000°)
4.57088189614872e+002	(9.66342089493817e+000dB,5.86157068001060e+000°)
4.67735141287195e+002	(9.77249062296348e+000dB,3.55212826093787e+000°)
4.78630092322635e+002	(9.84521478888337e+000dB,1.15914354088967e+000°)
4.89778819368443e+002	(9.87978063277322e+000dB,-1.28348879159854e+000°)
5.01187233627268e+002	(9.87540536246600e+000dB,-3.73969059196276e+000°)
5.12861383991361e+002	(9.83240041281245e+000dB,-6.17305542672983e+000°)
5.24807460249769e+002	(9.75213972737443e+000dB,-8.54874849576685e+000°)
5.37031796370249e+002	(9.63693774804247e+000dB,-1.08352028955691e+001°)
5.49540873857620e+002	(9.48985849196086e+000dB,-1.30054117648418e+001°)
5.62341325190345e+002	(9.31448661084791e+000dB,-1.50377051136938e+001°)
5.75439937337152e+002	(9.11469280054250e+000dB,-1.69160006879560e+001°)
5.88843655355584e+002	(8.89442046283815e+000dB,-1.86296014132766e+001°)
6.02559586074353e+002	(8.65751113360644e+000dB,-2.01726611460647e+001°)
