Freq.	V(n013)
1.00000000000000e+000	(-9.68115650532733e+001dB,-1.76379712717613e+002°)
1.00230523807790e+000	(-9.68114851223317e+001dB,-1.76371389367392e+002°)
1.00461579027840e+000	(-9.68114048270126e+001dB,-1.76363046982472e+002°)
1.00693166885180e+000	(-9.68113241609266e+001dB,-1.76354685522006e+002°)
1.00925288607668e+000	(-9.68112431251796e+001dB,-1.76346304941915e+002°)
1.01157945425990e+000	(-9.68111617154098e+001dB,-1.76337905200321e+002°)
1.01391138573668e+000	(-9.68110799313539e+001dB,-1.76329486253529e+002°)
1.01624869287070e+000	(-9.68109977729483e+001dB,-1.76321048057656e+002°)
1.01859138805412e+000	(-9.68109152359058e+001dB,-1.76312590570514e+002°)
1.02093948370768e+000	(-9.68108323197470e+001dB,-1.76304113748209e+002°)
1.02329299228075e+000	(-9.68107490218340e+001dB,-1.76295617547664e+002°)
1.02565192625141e+000	(-9.68106653416858e+001dB,-1.76287101924791e+002°)
1.02801629812647e+000	(-9.68105812766658e+001dB,-1.76278566836321e+002°)
1.03038612044162e+000	(-9.68104968256745e+001dB,-1.76270012238235e+002°)
1.03276140576140e+000	(-9.68104119870677e+001dB,-1.76261438086648e+002°)
1.03514216667934e+000	(-9.68103267563958e+001dB,-1.76252844338790e+002°)
1.03752841581801e+000	(-9.68102411359329e+001dB,-1.76244230948893e+002°)
1.03992016582906e+000	(-9.68101551204940e+001dB,-1.76235597874315e+002°)
1.04231742939330e+000	(-9.68100687105804e+001dB,-1.76226945069855e+002°)
1.04472021922080e+000	(-9.68099819041801e+001dB,-1.76218272491301e+002°)
1.04712854805090e+000	(-9.68098946985735e+001dB,-1.76209580094653e+002°)
1.04954242865232e+000	(-9.68098070913479e+001dB,-1.76200867835686e+002°)
1.05196187382322e+000	(-9.68097190830463e+001dB,-1.76192135668778e+002°)
1.05438689639126e+000	(-9.68096306682161e+001dB,-1.76183383550839e+002°)
1.05681750921366e+000	(-9.68095418476219e+001dB,-1.76174611435953e+002°)
1.05925372517729e+000	(-9.68094526197544e+001dB,-1.76165819279101e+002°)
1.06169555719872e+000	(-9.68093629811691e+001dB,-1.76157007036018e+002°)
1.06414301822431e+000	(-9.68092729320042e+001dB,-1.76148174660761e+002°)
1.06659612123026e+000	(-9.68091824675354e+001dB,-1.76139322109439e+002°)
1.06905487922266e+000	(-9.68090915877829e+001dB,-1.76130449335960e+002°)
1.07151930523761e+000	(-9.68090002913548e+001dB,-1.76121556294755e+002°)
1.07398941234124e+000	(-9.68089085737552e+001dB,-1.76112642941542e+002°)
1.07646521362983e+000	(-9.68088164355244e+001dB,-1.76103709229693e+002°)
1.07894672222983e+000	(-9.68087238756832e+001dB,-1.76094755113149e+002°)
1.08143395129794e+000	(-9.68086308886679e+001dB,-1.76085780547818e+002°)
1.08392691402120e+000	(-9.68085374747404e+001dB,-1.76076785486887e+002°)
1.08642562361706e+000	(-9.68084436327228e+001dB,-1.76067769884087e+002°)
1.08893009333343e+000	(-9.68083493587925e+001dB,-1.76058733694246e+002°)
1.09144033644876e+000	(-9.68082546508712e+001dB,-1.76049676871304e+002°)
1.09395636627209e+000	(-9.68081595091154e+001dB,-1.76040599368081e+002°)
1.09647819614318e+000	(-9.68080639298588e+001dB,-1.76031501139036e+002°)
1.09900583943252e+000	(-9.68079679113083e+001dB,-1.76022382137672e+002°)
1.10153930954141e+000	(-9.68078714515783e+001dB,-1.76013242317436e+002°)
1.10407861990207e+000	(-9.68077745490476e+001dB,-1.76004081631548e+002°)
1.10662378397766e+000	(-9.68076772007075e+001dB,-1.75994900033765e+002°)
1.10917481526240e+000	(-9.68075794071024e+001dB,-1.75985697476103e+002°)
1.11173172728159e+000	(-9.68074811626968e+001dB,-1.75976473913283e+002°)
1.11429453359173e+000	(-9.68073824686992e+001dB,-1.75967229296806e+002°)
1.11686324778056e+000	(-9.68072833188862e+001dB,-1.75957963581515e+002°)
1.11943788346715e+000	(-9.68071837160695e+001dB,-1.75948676717951e+002°)
1.12201845430196e+000	(-9.68070836548163e+001dB,-1.75939368660390e+002°)
1.12460497396692e+000	(-9.68069831340420e+001dB,-1.75930039360977e+002°)
1.12719745617551e+000	(-9.68068821507324e+001dB,-1.75920688772659e+002°)
1.12979591467280e+000	(-9.68067807054013e+001dB,-1.75911316846618e+002°)
1.13240036323556e+000	(-9.68066787934709e+001dB,-1.75901923536328e+002°)
1.13501081567231e+000	(-9.68065764132724e+001dB,-1.75892508793791e+002°)
1.13762728582343e+000	(-9.68064735631407e+001dB,-1.75883072570901e+002°)
1.14024978756117e+000	(-9.68063702414970e+001dB,-1.75873614819406e+002°)
1.14287833478977e+000	(-9.68062664438968e+001dB,-1.75864135492309e+002°)
1.14551294144553e+000	(-9.68061621706102e+001dB,-1.75854634540270e+002°)
1.14815362149688e+000	(-9.68060574177908e+001dB,-1.75845111915801e+002°)
1.15080038894443e+000	(-9.68059521846977e+001dB,-1.75835567569828e+002°)
1.15345325782109e+000	(-9.68058464682058e+001dB,-1.75826001454311e+002°)
1.15611224219210e+000	(-9.68057402662643e+001dB,-1.75816413520590e+002°)
1.15877735615512e+000	(-9.68056335781073e+001dB,-1.75806803719277e+002°)
1.16144861384034e+000	(-9.68055263978890e+001dB,-1.75797172003335e+002°)
1.16412602941049e+000	(-9.68054187263282e+001dB,-1.75787518322448e+002°)
1.16680961706096e+000	(-9.68053105616859e+001dB,-1.75777842627374e+002°)
1.16949939101987e+000	(-9.68052018984105e+001dB,-1.75768144870627e+002°)
1.17219536554813e+000	(-9.68050927377912e+001dB,-1.75758425001278e+002°)
1.17489755493953e+000	(-9.68049830764575e+001dB,-1.75748682970565e+002°)
1.17760597352080e+000	(-9.68048729110435e+001dB,-1.75738918729616e+002°)
1.18032063565173e+000	(-9.68047622401485e+001dB,-1.75729132228494e+002°)
1.18304155572516e+000	(-9.68046510610732e+001dB,-1.75719323417786e+002°)
1.18576874816716e+000	(-9.68045393714288e+001dB,-1.75709492247823e+002°)
1.18850222743702e+000	(-9.68044271691096e+001dB,-1.75699638668687e+002°)
1.19124200802737e+000	(-9.68043144529770e+001dB,-1.75689762629871e+002°)
1.19398810446427e+000	(-9.68042012184165e+001dB,-1.75679864082483e+002°)
1.19674053130724e+000	(-9.68040874637462e+001dB,-1.75669942976071e+002°)
1.19949930314938e+000	(-9.68039731879547e+001dB,-1.75659999259735e+002°)
1.20226443461741e+000	(-9.68038583879237e+001dB,-1.75650032883516e+002°)
1.20503594037179e+000	(-9.68037430605604e+001dB,-1.75640043797339e+002°)
1.20781383510678e+000	(-9.68036272038445e+001dB,-1.75630031950478e+002°)
1.21059813355048e+000	(-9.68035108148266e+001dB,-1.75619997292570e+002°)
1.21338885046497e+000	(-9.68033938920757e+001dB,-1.75609939772371e+002°)
1.21618600064636e+000	(-9.68032764339419e+001dB,-1.75599859338638e+002°)
1.21898959892486e+000	(-9.68031584358611e+001dB,-1.75589755941493e+002°)
1.22179966016487e+000	(-9.68030398965294e+001dB,-1.75579629529299e+002°)
1.22461619926504e+000	(-9.68029208133738e+001dB,-1.75569480050949e+002°)
1.22743923115840e+000	(-9.68028011836591e+001dB,-1.75559307455309e+002°)
1.23026877081238e+000	(-9.68026810059177e+001dB,-1.75549111690486e+002°)
1.23310483322890e+000	(-9.68025602759534e+001dB,-1.75538892705874e+002°)
1.23594743344451e+000	(-9.68024389916770e+001dB,-1.75528650449678e+002°)
1.23879658653036e+000	(-9.68023171517319e+001dB,-1.75518384869609e+002°)
1.24165230759241e+000	(-9.68021947525467e+001dB,-1.75508095914412e+002°)
1.24451461177138e+000	(-9.68020717923550e+001dB,-1.75497783531784e+002°)
1.24738351424294e+000	(-9.68019482680854e+001dB,-1.75487447669987e+002°)
1.25025903021771e+000	(-9.68018241762124e+001dB,-1.75477088277411e+002°)
1.25314117494141e+000	(-9.68016995164058e+001dB,-1.75466705300666e+002°)
1.25602996369487e+000	(-9.68015742838607e+001dB,-1.75456298688584e+002°)
1.25892541179416e+000	(-9.68014484763249e+001dB,-1.75445868388554e+002°)
1.26182753459066e+000	(-9.68013220939445e+001dB,-1.75435414346589e+002°)
1.26473634747115e+000	(-9.68011951300625e+001dB,-1.75424936512164e+002°)
1.26765186585784e+000	(-9.68010675845627e+001dB,-1.75414434831200e+002°)
1.27057410520854e+000	(-9.68009394532106e+001dB,-1.75403909251677e+002°)
1.27350308101666e+000	(-9.68008107367470e+001dB,-1.75393359718825e+002°)
1.27643880881134e+000	(-9.68006814278403e+001dB,-1.75382786182043e+002°)
1.27938130415752e+000	(-9.68005515258319e+001dB,-1.75372188587075e+002°)
1.28233058265602e+000	(-9.68004210277196e+001dB,-1.75361566880796e+002°)
1.28528665994361e+000	(-9.68002899330230e+001dB,-1.75350921008614e+002°)
1.28824955169313e+000	(-9.68001582369316e+001dB,-1.75340250918141e+002°)
1.29121927361353e+000	(-9.68000259353859e+001dB,-1.75329556556479e+002°)
1.29419584144998e+000	(-9.67998930283052e+001dB,-1.75318837868473e+002°)
1.29717927098395e+000	(-9.67997595117871e+001dB,-1.75308094800906e+002°)
1.30016957803328e+000	(-9.67996253832566e+001dB,-1.75297327299734e+002°)
1.30316677845229e+000	(-9.67994906395363e+001dB,-1.75286535311122e+002°)
1.30617088813183e+000	(-9.67993552787908e+001dB,-1.75275718780391e+002°)
1.30918192299940e+000	(-9.67992192962521e+001dB,-1.75264877654342e+002°)
1.31219989901920e+000	(-9.67990826909245e+001dB,-1.75254011877605e+002°)
1.31522483219223e+000	(-9.67989454595098e+001dB,-1.75243121395947e+002°)
1.31825673855640e+000	(-9.67988075988682e+001dB,-1.75232206154934e+002°)
1.32129563418657e+000	(-9.67986691061550e+001dB,-1.75221266099854e+002°)
1.32434153519466e+000	(-9.67985299778243e+001dB,-1.75210301176267e+002°)
1.32739445772973e+000	(-9.67983902138243e+001dB,-1.75199311327680e+002°)
1.33045441797808e+000	(-9.67982498074409e+001dB,-1.75188296501171e+002°)
1.33352143216332e+000	(-9.67981087592914e+001dB,-1.75177256639638e+002°)
1.33659551654643e+000	(-9.67979670635530e+001dB,-1.75166191689436e+002°)
1.33967668742593e+000	(-9.67978247188800e+001dB,-1.75155101594313e+002°)
1.34276496113786e+000	(-9.67976817214787e+001dB,-1.75143986299262e+002°)
1.34586035405594e+000	(-9.67975380690415e+001dB,-1.75132845748331e+002°)
1.34896288259164e+000	(-9.67973937589513e+001dB,-1.75121679885615e+002°)
1.35207256319427e+000	(-9.67972487855516e+001dB,-1.75110488656807e+002°)
1.35518941235103e+000	(-9.67971031504265e+001dB,-1.75099272003399e+002°)
1.35831344658715e+000	(-9.67969568456656e+001dB,-1.75088029872122e+002°)
1.36144468246594e+000	(-9.67968098723502e+001dB,-1.75076762204504e+002°)
1.36458313658892e+000	(-9.67966622245365e+001dB,-1.75065468945934e+002°)
1.36772882559584e+000	(-9.67965139000020e+001dB,-1.75054150039570e+002°)
1.37088176616484e+000	(-9.67963648970549e+001dB,-1.75042805428145e+002°)
1.37404197501251e+000	(-9.67962152105727e+001dB,-1.75031435056230e+002°)
1.37720946889394e+000	(-9.67960648391284e+001dB,-1.75020038866163e+002°)
1.38038426460288e+000	(-9.67959137780411e+001dB,-1.75008616802026e+002°)
1.38356637897177e+000	(-9.67957620250026e+001dB,-1.74997168806423e+002°)
1.38675582887188e+000	(-9.67956095784422e+001dB,-1.74985694821399e+002°)
1.38995263121334e+000	(-9.67954564323561e+001dB,-1.74974194791448e+002°)
1.39315680294529e+000	(-9.67953025847265e+001dB,-1.74962668658636e+002°)
1.39636836105593e+000	(-9.67951480324640e+001dB,-1.74951116365528e+002°)
1.39958732257261e+000	(-9.67949927723620e+001dB,-1.74939537854635e+002°)
1.40281370456195e+000	(-9.67948368019201e+001dB,-1.74927933067931e+002°)
1.40604752412990e+000	(-9.67946801155841e+001dB,-1.74916301949060e+002°)
1.40928879842186e+000	(-9.67945227125223e+001dB,-1.74904644438775e+002°)
1.41253754462274e+000	(-9.67943645895728e+001dB,-1.74892960479070e+002°)
1.41579377995707e+000	(-9.67942057416913e+001dB,-1.74881250012927e+002°)
1.41905752168908e+000	(-9.67940461670961e+001dB,-1.74869512981283e+002°)
1.42232878712281e+000	(-9.67938858608451e+001dB,-1.74857749326819e+002°)
1.42560759360218e+000	(-9.67937248220483e+001dB,-1.74845958989693e+002°)
1.42889395851109e+000	(-9.67935630436198e+001dB,-1.74834141913620e+002°)
1.43218789927353e+000	(-9.67934005267371e+001dB,-1.74822298037272e+002°)
1.43548943335364e+000	(-9.67932372640416e+001dB,-1.74810427304289e+002°)
1.43879857825583e+000	(-9.67930732551414e+001dB,-1.74798529654024e+002°)
1.44211535152486e+000	(-9.67929084972753e+001dB,-1.74786605027115e+002°)
1.44543977074592e+000	(-9.67927429814772e+001dB,-1.74774653367818e+002°)
1.44877185354475e+000	(-9.67925767094897e+001dB,-1.74762674613818e+002°)
1.45211161758773e+000	(-9.67924096763562e+001dB,-1.74750668706709e+002°)
1.45545908058195e+000	(-9.67922418799275e+001dB,-1.74738635586260e+002°)
1.45881426027534e+000	(-9.67920733151153e+001dB,-1.74726575193900e+002°)
1.46217717445671e+000	(-9.67919039771179e+001dB,-1.74714487470767e+002°)
1.46554784095590e+000	(-9.67917338662722e+001dB,-1.74702372354738e+002°)
1.46892627764385e+000	(-9.67915629747939e+001dB,-1.74690229788519e+002°)
1.47231250243271e+000	(-9.67913913033848e+001dB,-1.74678059709504e+002°)
1.47570653327588e+000	(-9.67912188463135e+001dB,-1.74665862058897e+002°)
1.47910838816819e+000	(-9.67910455983936e+001dB,-1.74653636777452e+002°)
1.48251808514594e+000	(-9.67908715586757e+001dB,-1.74641383803185e+002°)
1.48593564228699e+000	(-9.67906967237448e+001dB,-1.74629103075501e+002°)
1.48936107771090e+000	(-9.67905210861554e+001dB,-1.74616794536179e+002°)
1.49279440957898e+000	(-9.67903446468580e+001dB,-1.74604458121666e+002°)
1.49623565609442e+000	(-9.67901674015351e+001dB,-1.74592093771543e+002°)
1.49968483550236e+000	(-9.67899893432321e+001dB,-1.74579701426921e+002°)
1.50314196609001e+000	(-9.67898104716746e+001dB,-1.74567281024609e+002°)
1.50660706618673e+000	(-9.67896307812887e+001dB,-1.74554832504604e+002°)
1.51008015416413e+000	(-9.67894502700136e+001dB,-1.74542355804568e+002°)
1.51356124843619e+000	(-9.67892689315471e+001dB,-1.74529850864710e+002°)
1.51705036745932e+000	(-9.67890867647317e+001dB,-1.74517317621865e+002°)
1.52054752973248e+000	(-9.67889037641663e+001dB,-1.74504756015419e+002°)
1.52405275379728e+000	(-9.67887199258019e+001dB,-1.74492165983780e+002°)
1.52756605823806e+000	(-9.67885352481515e+001dB,-1.74479547463593e+002°)
1.53108746168202e+000	(-9.67883497267623e+001dB,-1.74466900393259e+002°)
1.53461698279928e+000	(-9.67881633548897e+001dB,-1.74454224712520e+002°)
1.53815464030302e+000	(-9.67879761322360e+001dB,-1.74441520356868e+002°)
1.54170045294954e+000	(-9.67877880530790e+001dB,-1.74428787265136e+002°)
1.54525443953840e+000	(-9.67875991129320e+001dB,-1.74416025375240e+002°)
1.54881661891247e+000	(-9.67874093105793e+001dB,-1.74403234622857e+002°)
1.55238700995807e+000	(-9.67872186402116e+001dB,-1.74390414946493e+002°)
1.55596563160506e+000	(-9.67870270972201e+001dB,-1.74377566283758e+002°)
1.55955250282694e+000	(-9.67868346803644e+001dB,-1.74364688569941e+002°)
1.56314764264094e+000	(-9.67866413825944e+001dB,-1.74351781743977e+002°)
1.56675107010813e+000	(-9.67864472017582e+001dB,-1.74338845741484e+002°)
1.57036280433354e+000	(-9.67862521325772e+001dB,-1.74325880499990e+002°)
1.57398286446620e+000	(-9.67860561725391e+001dB,-1.74312885955080e+002°)
1.57761126969933e+000	(-9.67858593178101e+001dB,-1.74299862043072e+002°)
1.58124803927037e+000	(-9.67856615609365e+001dB,-1.74286808702537e+002°)
1.58489319246110e+000	(-9.67854629019926e+001dB,-1.74273725866959e+002°)
1.58854674859776e+000	(-9.67852633344076e+001dB,-1.74260613474070e+002°)
1.59220872705115e+000	(-9.67850628561317e+001dB,-1.74247471458479e+002°)
1.59587914723672e+000	(-9.67848614610524e+001dB,-1.74234299757361e+002°)
1.59955802861465e+000	(-9.67846591467018e+001dB,-1.74221098305332e+002°)
1.60324539069002e+000	(-9.67844559065591e+001dB,-1.74207867039584e+002°)
1.60694125301286e+000	(-9.67842517385607e+001dB,-1.74194605894197e+002°)
1.61064563517825e+000	(-9.67840466385229e+001dB,-1.74181314804533e+002°)
1.61435855682647e+000	(-9.67838406004001e+001dB,-1.74167993707074e+002°)
1.61808003764305e+000	(-9.67836336213390e+001dB,-1.74154642536027e+002°)
1.62181009735891e+000	(-9.67834256957183e+001dB,-1.74141261227329e+002°)
1.62554875575047e+000	(-9.67832168223107e+001dB,-1.74127849713812e+002°)
1.62929603263970e+000	(-9.67830069948024e+001dB,-1.74114407931614e+002°)
1.63305194789432e+000	(-9.67827962086923e+001dB,-1.74100935815518e+002°)
1.63681652142779e+000	(-9.67825844584592e+001dB,-1.74087433300869e+002°)
1.64058977319952e+000	(-9.67823717431141e+001dB,-1.74073900319786e+002°)
1.64437172321491e+000	(-9.67821580553798e+001dB,-1.74060336808543e+002°)
1.64816239152549e+000	(-9.67819433930074e+001dB,-1.74046742699845e+002°)
1.65196179822900e+000	(-9.67817277480546e+001dB,-1.74033117930172e+002°)
1.65576996346951e+000	(-9.67815111207904e+001dB,-1.74019462430216e+002°)
1.65958690743754e+000	(-9.67812935040854e+001dB,-1.74005776135632e+002°)
1.66341265037015e+000	(-9.67810748937840e+001dB,-1.73992058979889e+002°)
1.66724721255104e+000	(-9.67808552849441e+001dB,-1.73978310896872e+002°)
1.67109061431069e+000	(-9.67806346742752e+001dB,-1.73964531819175e+002°)
1.67494287602642e+000	(-9.67804130561047e+001dB,-1.73950721680920e+002°)
1.67880401812254e+000	(-9.67801904276649e+001dB,-1.73936880414062e+002°)
1.68267406107045e+000	(-9.67799667814058e+001dB,-1.73923007953768e+002°)
1.68655302538872e+000	(-9.67797421143563e+001dB,-1.73909104231868e+002°)
1.69044093164324e+000	(-9.67795164233344e+001dB,-1.73895169180190e+002°)
1.69433780044731e+000	(-9.67792897019909e+001dB,-1.73881202732661e+002°)
1.69824365246172e+000	(-9.67790619461992e+001dB,-1.73867204821505e+002°)
1.70215850839493e+000	(-9.67788331505919e+001dB,-1.73853175379687e+002°)
1.70608238900310e+000	(-9.67786033113921e+001dB,-1.73839114338909e+002°)
1.71001531509027e+000	(-9.67783724228737e+001dB,-1.73825021632122e+002°)
1.71395730750840e+000	(-9.67781404817725e+001dB,-1.73810897190385e+002°)
1.71790838715757e+000	(-9.67779074822389e+001dB,-1.73796740946464e+002°)
1.72186857498599e+000	(-9.67776734209878e+001dB,-1.73782552831152e+002°)
1.72583789199018e+000	(-9.67774382898563e+001dB,-1.73768332778607e+002°)
1.72981635921508e+000	(-9.67772020872717e+001dB,-1.73754080718118e+002°)
1.73380399775412e+000	(-9.67769648083444e+001dB,-1.73739796581212e+002°)
1.73780082874935e+000	(-9.67767264464364e+001dB,-1.73725480300548e+002°)
1.74180687339159e+000	(-9.67764869976937e+001dB,-1.73711131806633e+002°)
1.74582215292048e+000	(-9.67762464553792e+001dB,-1.73696751031932e+002°)
1.74984668862464e+000	(-9.67760048184173e+001dB,-1.73682337904650e+002°)
1.75388050184174e+000	(-9.67757620775858e+001dB,-1.73667892358790e+002°)
1.75792361395867e+000	(-9.67755182315472e+001dB,-1.73653414322460e+002°)
1.76197604641161e+000	(-9.67752732744492e+001dB,-1.73638903726926e+002°)
1.76603782068614e+000	(-9.67750271996251e+001dB,-1.73624360503921e+002°)
1.77010895831740e+000	(-9.67747800017861e+001dB,-1.73609784584033e+002°)
1.77418948089014e+000	(-9.67745316796045e+001dB,-1.73595175894778e+002°)
1.77827941003890e+000	(-9.67742822232991e+001dB,-1.73580534369784e+002°)
1.78237876744807e+000	(-9.67740316306109e+001dB,-1.73565859936974e+002°)
1.78648757485203e+000	(-9.67737798955890e+001dB,-1.73551152526867e+002°)
1.79060585403527e+000	(-9.67735270141782e+001dB,-1.73536412068429e+002°)
1.79473362683250e+000	(-9.67732729805188e+001dB,-1.73521638491832e+002°)
1.79887091512876e+000	(-9.67730177876655e+001dB,-1.73506831727929e+002°)
1.80301774085955e+000	(-9.67727614326495e+001dB,-1.73491991704450e+002°)
1.80717412601090e+000	(-9.67725039101667e+001dB,-1.73477118350733e+002°)
1.81134009261958e+000	(-9.67722452141938e+001dB,-1.73462211596519e+002°)
1.81551566277311e+000	(-9.67719853394127e+001dB,-1.73447271370881e+002°)
1.81970085860996e+000	(-9.67717242808985e+001dB,-1.73432297602451e+002°)
1.82389570231961e+000	(-9.67714620332804e+001dB,-1.73417290220060e+002°)
1.82810021614272e+000	(-9.67711985906553e+001dB,-1.73402249152802e+002°)
1.83231442237119e+000	(-9.67709339498407e+001dB,-1.73387174327556e+002°)
1.83653834334832e+000	(-9.67706681004321e+001dB,-1.73372065676577e+002°)
1.84077200146893e+000	(-9.67704010433728e+001dB,-1.73356923123299e+002°)
1.84501541917945e+000	(-9.67701327689330e+001dB,-1.73341746599189e+002°)
1.84926861897805e+000	(-9.67698632718991e+001dB,-1.73326536032114e+002°)
1.85353162341479e+000	(-9.67695925495252e+001dB,-1.73311291347892e+002°)
1.85780445509167e+000	(-9.67693205944236e+001dB,-1.73296012475776e+002°)
1.86208713666284e+000	(-9.67690473998962e+001dB,-1.73280699344359e+002°)
1.86637969083464e+000	(-9.67687729619928e+001dB,-1.73265351879956e+002°)
1.87068214036577e+000	(-9.67684972758961e+001dB,-1.73249970009407e+002°)
