Freq.	V(vin)/I(R26)
1.00000000000000e+000	(-3.79756367357269e+001dB,3.95084277928944e-001°)
1.02329299228075e+000	(-3.79756270026471e+001dB,4.04286670924879e-001°)
1.04712854805090e+000	(-3.79756168108847e+001dB,4.13703393589025e-001°)
1.07151930523761e+000	(-3.79756061388249e+001dB,4.23339436755923e-001°)
1.09647819614318e+000	(-3.79755949638346e+001dB,4.33199907401117e-001°)
1.12201845430196e+000	(-3.79755832622140e+001dB,4.43290031338527e-001°)
1.14815362149688e+000	(-3.79755710091469e+001dB,4.53615155980086e-001°)
1.17489755493953e+000	(-3.79755581786475e+001dB,4.64180753159053e-001°)
1.20226443461741e+000	(-3.79755447435060e+001dB,4.74992422018443e-001°)
1.23026877081238e+000	(-3.79755306752303e+001dB,4.86055891966036e-001°)
1.25892541179417e+000	(-3.79755159439860e+001dB,4.97377025697481e-001°)
1.28824955169313e+000	(-3.79755005185331e+001dB,5.08961822289014e-001°)
1.31825673855641e+000	(-3.79754843661598e+001dB,5.20816420361361e-001°)
1.34896288259165e+000	(-3.79754674526129e+001dB,5.32947101316425e-001°)
1.38038426460288e+000	(-3.79754497420257e+001dB,5.45360292648381e-001°)
1.41253754462275e+000	(-3.79754311968417e+001dB,5.58062571330847e-001°)
1.44543977074593e+000	(-3.79754117777350e+001dB,5.71060667281825e-001°)
1.47910838816821e+000	(-3.79753914435270e+001dB,5.84361466908141e-001°)
1.51356124843621e+000	(-3.79753701510994e+001dB,5.97972016731165e-001°)
1.54881661891248e+000	(-3.79753478553024e+001dB,6.11899527095581e-001°)
1.58489319246111e+000	(-3.79753245088596e+001dB,6.26151375963078e-001°)
1.62181009735893e+000	(-3.79753000622674e+001dB,6.40735112792806e-001°)
1.65958690743756e+000	(-3.79752744636902e+001dB,6.55658462510524e-001°)
1.69824365246174e+000	(-3.79752476588510e+001dB,6.70929329568363e-001°)
1.73780082874937e+000	(-3.79752195909160e+001dB,6.86555802097216e-001°)
1.77827941003892e+000	(-3.79751902003744e+001dB,7.02546156153738e-001°)
1.81970085860998e+000	(-3.79751594249123e+001dB,7.18908860064027e-001°)
1.86208713666287e+000	(-3.79751271992812e+001dB,7.35652578866089e-001°)
1.90546071796325e+000	(-3.79750934551592e+001dB,7.52786178853195e-001°)
1.94984459975804e+000	(-3.79750581210067e+001dB,7.70318732220296e-001°)
1.99526231496888e+000	(-3.79750211219150e+001dB,7.88259521815729e-001°)
2.04173794466953e+000	(-3.79749823794477e+001dB,8.06618046000417e-001°)
2.08929613085404e+000	(-3.79749418114746e+001dB,8.25404023616868e-001°)
2.13796208950223e+000	(-3.79748993319980e+001dB,8.44627399070271e-001°)
2.18776162394955e+000	(-3.79748548509706e+001dB,8.64298347524056e-001°)
2.23872113856834e+000	(-3.79748082741053e+001dB,8.84427280212290e-001°)
2.29086765276777e+000	(-3.79747595026754e+001dB,9.05024849871341e-001°)
2.34422881531992e+000	(-3.79747084333058e+001dB,9.26101956293277e-001°)
2.39883291901949e+000	(-3.79746549577546e+001dB,9.47669752003469e-001°)
2.45470891568503e+000	(-3.79745989626840e+001dB,9.69739648064955e-001°)
2.51188643150958e+000	(-3.79745403294209e+001dB,9.92323320012101e-001°)
2.57039578276886e+000	(-3.79744789337056e+001dB,1.01543271391617e+000°)
2.63026799189538e+000	(-3.79744146454297e+001dB,1.03908005258538e+000°)
2.69153480392691e+000	(-3.79743473283606e+001dB,1.06327784190221e+000°)
2.75422870333816e+000	(-3.79742768398542e+001dB,1.08803887730043e+000°)
2.81838293126445e+000	(-3.79742030305529e+001dB,1.11337625038482e+000°)
2.88403150312660e+000	(-3.79741257440710e+001dB,1.13930335569606e+000°)
2.95120922666638e+000	(-3.79740448166634e+001dB,1.16583389762375e+000°)
3.01995172040201e+000	(-3.79739600768810e+001dB,1.19298189747011e+000°)
3.09029543251359e+000	(-3.79738713452077e+001dB,1.22076170066740e+000°)
3.16227766016837e+000	(-3.79737784336826e+001dB,1.24918798415157e+000°)
3.23593656929628e+000	(-3.79736811455025e+001dB,1.27827576389527e+000°)
3.31131121482591e+000	(-3.79735792746076e+001dB,1.30804040260269e+000°)
3.38844156139202e+000	(-3.79734726052465e+001dB,1.33849761756933e+000°)
3.46736850452531e+000	(-3.79733609115212e+001dB,1.36966348870935e+000°)
3.54813389233575e+000	(-3.79732439569116e+001dB,1.40155446675338e+000°)
3.63078054770101e+000	(-3.79731214937767e+001dB,1.43418738161954e+000°)
3.71535229097172e+000	(-3.79729932628331e+001dB,1.46757945096046e+000°)
3.80189396320560e+000	(-3.79728589926092e+001dB,1.50174828888910e+000°)
3.89045144994280e+000	(-3.79727183988738e+001dB,1.53671191488596e+000°)
3.98107170553496e+000	(-3.79725711840379e+001dB,1.57248876289050e+000°)
4.07380277804112e+000	(-3.79724170365288e+001dB,1.60909769057938e+000°)
4.16869383470335e+000	(-3.79722556301354e+001dB,1.64655798883396e+000°)
4.26579518801592e+000	(-3.79720866233221e+001dB,1.68488939139977e+000°)
4.36515832240165e+000	(-3.79719096585121e+001dB,1.72411208474026e+000°)
4.46683592150962e+000	(-3.79717243613358e+001dB,1.76424671808723e+000°)
4.57088189614874e+000	(-3.79715303398459e+001dB,1.80531441369013e+000°)
4.67735141287197e+000	(-3.79713271836948e+001dB,1.84733677726647e+000°)
4.78630092322637e+000	(-3.79711144632744e+001dB,1.89033590865530e+000°)
4.89778819368445e+000	(-3.79708917288163e+001dB,1.93433441267558e+000°)
5.01187233627271e+000	(-3.79706585094494e+001dB,1.97935541019132e+000°)
5.12861383991364e+000	(-3.79704143122149e+001dB,2.02542254938481e+000°)
5.24807460249771e+000	(-3.79701586210353e+001dB,2.07256001723946e+000°)
5.37031796370252e+000	(-3.79698908956353e+001dB,2.12079255123340e+000°)
5.49540873857623e+000	(-3.79696105704142e+001dB,2.17014545124455e+000°)
5.62341325190348e+000	(-3.79693170532645e+001dB,2.22064459166799e+000°)
5.75439937337156e+000	(-3.79690097243380e+001dB,2.27231643374595e+000°)
5.88843655355588e+000	(-3.79686879347534e+001dB,2.32518803811037e+000°)
6.02559586074356e+000	(-3.79683510052459e+001dB,2.37928707753788e+000°)
6.16595001861481e+000	(-3.79679982247538e+001dB,2.43464184991633e+000°)
6.30957344480192e+000	(-3.79676288489411e+001dB,2.49128129142210e+000°)
6.45654229034654e+000	(-3.79672420986516e+001dB,2.54923498990629e+000°)
6.60693448007594e+000	(-3.79668371582931e+001dB,2.60853319848817e+000°)
6.76082975391980e+000	(-3.79664131741478e+001dB,2.66920684935313e+000°)
6.91830970918935e+000	(-3.79659692526047e+001dB,2.73128756775204e+000°)
7.07945784384136e+000	(-3.79655044583131e+001dB,2.79480768619861e+000°)
7.24435960074988e+000	(-3.79650178122508e+001dB,2.85980025885997e+000°)
7.41310241300916e+000	(-3.79645082897058e+001dB,2.92629907613575e+000°)
7.58577575029182e+000	(-3.79639748181658e+001dB,2.99433867941958e+000°)
7.76247116628690e+000	(-3.79634162751126e+001dB,3.06395437603648e+000°)
7.94328234724279e+000	(-3.79628314857179e+001dB,3.13518225434845e+000°)
8.12830516164097e+000	(-3.79622192204339e+001dB,3.20805919901968e+000°)
8.31763771102669e+000	(-3.79615781924771e+001dB,3.28262290643193e+000°)
8.51138038202374e+000	(-3.79609070551989e+001dB,3.35891190023909e+000°)
8.70963589956078e+000	(-3.79602043993389e+001dB,3.43696554704918e+000°)
8.91250938133743e+000	(-3.79594687501554e+001dB,3.51682407222047e+000°)
9.12010839355907e+000	(-3.79586985644294e+001dB,3.59852857575701e+000°)
9.33254300796988e+000	(-3.79578922273351e+001dB,3.68212104828752e+000°)
9.54992586021433e+000	(-3.79570480491725e+001dB,3.76764438710979e+000°)
9.77237220955808e+000	(-3.79561642619566e+001dB,3.85514241228109e+000°)
9.99999999999997e+000	(-3.79552390158560e+001dB,3.94465988273344e+000°)
1.02329299228075e+001	(-3.79542703754774e+001dB,4.03624251239013e+000°)
1.04712854805090e+001	(-3.79532563159867e+001dB,4.12993698625832e+000°)
1.07151930523760e+001	(-3.79521947190638e+001dB,4.22579097646993e+000°)
1.09647819614318e+001	(-3.79510833686805e+001dB,4.32385315824068e+000°)
1.12201845430196e+001	(-3.79499199466993e+001dB,4.42417322571473e+000°)
1.14815362149688e+001	(-3.79487020282824e+001dB,4.52680190765939e+000°)
1.17489755493953e+001	(-3.79474270771056e+001dB,4.63179098297157e+000°)
1.20226443461741e+001	(-3.79460924403697e+001dB,4.73919329595458e+000°)
1.23026877081238e+001	(-3.79446953436023e+001dB,4.84906277132037e+000°)
1.25892541179416e+001	(-3.79432328852408e+001dB,4.96145442886902e+000°)
1.28824955169313e+001	(-3.79417020309914e+001dB,5.07642439779332e+000°)
1.31825673855640e+001	(-3.79400996079540e+001dB,5.19402993055247e+000°)
1.34896288259165e+001	(-3.79384222985065e+001dB,5.31432941625459e+000°)
1.38038426460288e+001	(-3.79366666339396e+001dB,5.43738239348318e+000°)
1.41253754462275e+001	(-3.79348289878346e+001dB,5.56324956249834e+000°)
1.44543977074592e+001	(-3.79329055691752e+001dB,5.69199279673790e+000°)
1.47910838816820e+001	(-3.79308924151863e+001dB,5.82367515353891e+000°)
1.51356124843620e+001	(-3.79287853838901e+001dB,5.95836088399380e+000°)
1.54881661891248e+001	(-3.79265801463725e+001dB,6.09611544185028e+000°)
1.58489319246111e+001	(-3.79242721787510e+001dB,6.23700549135709e+000°)
1.62181009735892e+001	(-3.79218567538359e+001dB,6.38109891395167e+000°)
1.65958690743755e+001	(-3.79193289324781e+001dB,6.52846481367876e+000°)
1.69824365246174e+001	(-3.79166835545943e+001dB,6.67917352122179e+000°)
1.73780082874937e+001	(-3.79139152298627e+001dB,6.83329659642128e+000°)
1.77827941003892e+001	(-3.79110183280824e+001dB,6.99090682914642e+000°)
1.81970085860998e+001	(-3.79079869691905e+001dB,7.15207823837827e+000°)
1.86208713666286e+001	(-3.79048150129277e+001dB,7.31688606935363e+000°)
1.90546071796324e+001	(-3.79014960481510e+001dB,7.48540678861028e+000°)
1.94984459975804e+001	(-3.78980233817843e+001dB,7.65771807676464e+000°)
1.99526231496887e+001	(-3.78943900274058e+001dB,7.83389881884339e+000°)
2.04173794466952e+001	(-3.78905886934661e+001dB,8.01402909198048e+000°)
2.08929613085403e+001	(-3.78866117711373e+001dB,8.19819015028088e+000°)
2.13796208950222e+001	(-3.78824513217880e+001dB,8.38646440664154e+000°)
2.18776162394954e+001	(-3.78780990640886e+001dB,8.57893541130949e+000°)
2.23872113856833e+001	(-3.78735463607436e+001dB,8.77568782694566e+000°)
2.29086765276776e+001	(-3.78687842048565e+001dB,8.97680739995208e+000°)
2.34422881531991e+001	(-3.78638032059314e+001dB,9.18238092780832e+000°)
2.39883291901948e+001	(-3.78585935755168e+001dB,9.39249622215183e+000°)
2.45470891568502e+001	(-3.78531451125005e+001dB,9.60724206732541e+000°)
2.51188643150957e+001	(-3.78474471880666e+001dB,9.82670817410316e+000°)
2.57039578276885e+001	(-3.78414887303284e+001dB,1.00509851282955e+001°)
2.63026799189537e+001	(-3.78352582086526e+001dB,1.02801643339223e+001°)
2.69153480392690e+001	(-3.78287436176938e+001dB,1.05143379506332e+001°)
2.75422870333815e+001	(-3.78219324611634e+001dB,1.07535988250428e+001°)
2.81838293126444e+001	(-3.78148117353575e+001dB,1.09980404156398e+001°)
2.88403150312659e+001	(-3.78073679124744e+001dB,1.12477567109203e+001°)
2.95120922666637e+001	(-3.77995869237560e+001dB,1.15028421403874e+001°)
3.01995172040200e+001	(-3.77914541424920e+001dB,1.17633914780517e+001°)
3.09029543251358e+001	(-3.77829543669302e+001dB,1.20294997380643e+001°)
3.16227766016837e+001	(-3.77740718031418e+001dB,1.23012620621073e+001°)
3.23593656929627e+001	(-3.77647900478958e+001dB,1.25787735981674e+001°)
3.31131121482590e+001	(-3.77550920716035e+001dB,1.28621293703174e+001°)
3.38844156139201e+001	(-3.77449602013978e+001dB,1.31514241391327e+001°)
3.46736850452530e+001	(-3.77343761044218e+001dB,1.34467522523766e+001°)
3.54813389233574e+001	(-3.77233207714058e+001dB,1.37482074855962e+001°)
3.63078054770100e+001	(-3.77117745006188e+001dB,1.40558828722821e+001°)
3.71535229097171e+001	(-3.76997168822907e+001dB,1.43698705232631e+001°)
3.80189396320559e+001	(-3.76871267836050e+001dB,1.46902614350245e+001°)
3.89045144994279e+001	(-3.76739823343742e+001dB,1.50171452866657e+001°)
3.98107170553495e+001	(-3.76602609135147e+001dB,1.53506102252420e+001°)
4.07380277804111e+001	(-3.76459391364481e+001dB,1.56907426392700e+001°)
4.16869383470333e+001	(-3.76309928435646e+001dB,1.60376269202201e+001°)
4.26579518801591e+001	(-3.76153970898911e+001dB,1.63913452118632e+001°)
4.36515832240164e+001	(-3.75991261361158e+001dB,1.67519771473979e+001°)
4.46683592150961e+001	(-3.75821534411300e+001dB,1.71195995743423e+001°)
4.57088189614873e+001	(-3.75644516562551e+001dB,1.74942862672476e+001°)
4.67735141287196e+001	(-3.75459926213297e+001dB,1.78761076283642e+001°)
4.78630092322636e+001	(-3.75267473628409e+001dB,1.82651303764802e+001°)
4.89778819368444e+001	(-3.75066860942881e+001dB,1.86614172242429e+001°)
5.01187233627270e+001	(-3.74857782189753e+001dB,1.90650265443793e+001°)
5.12861383991362e+001	(-3.74639923354316e+001dB,1.94760120253407e+001°)
5.24807460249770e+001	(-3.74412962456635e+001dB,1.98944223170168e+001°)
5.37031796370250e+001	(-3.74176569664452e+001dB,2.03203006672946e+001°)
5.49540873857622e+001	(-3.73930407438536e+001dB,2.07536845503693e+001°)
5.62341325190346e+001	(-3.73674130712543e+001dB,2.11946052878638e+001°)
5.75439937337154e+001	(-3.73407387109415e+001dB,2.16430876639596e+001°)
5.88843655355586e+001	(-3.73129817196310e+001dB,2.20991495359007e+001°)
6.02559586074355e+001	(-3.72841054779961e+001dB,2.25628014413944e+001°)
6.16595001861479e+001	(-3.72540727244282e+001dB,2.30340462045957e+001°)
6.30957344480190e+001	(-3.72228455931914e+001dB,2.35128785425334e+001°)
6.45654229034652e+001	(-3.71903856571225e+001dB,2.39992846740015e+001°)
6.60693448007593e+001	(-3.71566539750122e+001dB,2.44932419331052e+001°)
6.76082975391978e+001	(-3.71216111437794e+001dB,2.49947183898173e+001°)
6.91830970918933e+001	(-3.70852173555252e+001dB,2.55036724800513e+001°)
7.07945784384134e+001	(-3.70474324595260e+001dB,2.60200526479105e+001°)
7.24435960074986e+001	(-3.70082160291919e+001dB,2.65437970029017e+001°)
7.41310241300914e+001	(-3.69675274339801e+001dB,2.70748329950271e+001°)
7.58577575029180e+001	(-3.69253259162171e+001dB,2.76130771107658e+001°)
7.76247116628688e+001	(-3.68815706727385e+001dB,2.81584345930384e+001°)
7.94328234724277e+001	(-3.68362209412124e+001dB,2.87107991883019e+001°)
8.12830516164095e+001	(-3.67892360909633e+001dB,2.92700529239495e+001°)
8.31763771102667e+001	(-3.67405757180664e+001dB,2.98360659191854e+001°)
8.51138038202372e+001	(-3.66901997444279e+001dB,3.04086962325037e+001°)
8.70963589956076e+001	(-3.66380685205150e+001dB,3.09877897488270e+001°)
8.91250938133741e+001	(-3.65841429313500e+001dB,3.15731801092416e+001°)
9.12010839355905e+001	(-3.65283845053233e+001dB,3.21646886861104e+001°)
9.33254300796986e+001	(-3.64707555253344e+001dB,3.27621246061449e+001°)
9.54992586021431e+001	(-3.64112191417160e+001dB,3.33652848237740e+001°)
9.77237220955805e+001	(-3.63497394863512e+001dB,3.39739542468604e+001°)
9.99999999999995e+001	(-3.62862817873468e+001dB,3.45879059164866e+001°)
1.02329299228075e+002	(-3.62208124835894e+001dB,3.52069012421641e+001°)
1.04712854805089e+002	(-3.61532993384754e+001dB,3.58306902934081e+001°)
1.07151930523760e+002	(-3.60837115520758e+001dB,3.64590121481819e+001°)
1.09647819614318e+002	(-3.60120198709802e+001dB,3.70915952982373e+001°)
1.12201845430196e+002	(-3.59381966950464e+001dB,3.77281581108842e+001°)
1.14815362149688e+002	(-3.58622161802811e+001dB,3.83684093462013e+001°)
1.17489755493952e+002	(-3.57840543370774e+001dB,3.90120487281743e+001°)
1.20226443461741e+002	(-3.57036891230523e+001dB,3.96587675677122e+001°)
1.23026877081237e+002	(-3.56211005297471e+001dB,4.03082494349631e+001°)
1.25892541179416e+002	(-3.55362706624868e+001dB,4.09601708778308e+001°)
1.28824955169313e+002	(-3.54491838127382e+001dB,4.16142021830969e+001°)
1.31825673855640e+002	(-3.53598265223554e+001dB,4.22700081760799e+001°)
1.34896288259165e+002	(-3.52681876391630e+001dB,4.29272490543307e+001°)
1.38038426460288e+002	(-3.51742583633930e+001dB,4.35855812504736e+001°)
1.41253754462275e+002	(-3.50780322845689e+001dB,4.42446583189631e+001°)
1.44543977074592e+002	(-3.49795054085096e+001dB,4.49041318412460e+001°)
1.47910838816820e+002	(-3.48786761742113e+001dB,4.55636523436003e+001°)
1.51356124843620e+002	(-3.47755454604576e+001dB,4.62228702217711e+001°)
1.54881661891247e+002	(-3.46701165820974e+001dB,4.68814366664423e+001°)
1.58489319246110e+002	(-3.45623952760243e+001dB,4.75390045835718e+001°)
1.62181009735892e+002	(-3.44523896769832e+001dB,4.81952295036817e+001°)
1.65958690743755e+002	(-3.43401102834205e+001dB,4.88497704743254e+001°)
1.69824365246173e+002	(-3.42255699136810e+001dB,4.95022909301523e+001°)
1.73780082874936e+002	(-3.41087836529374e+001dB,5.01524595352583e+001°)
1.77827941003891e+002	(-3.39897687913149e+001dB,5.07999509928284e+001°)
1.81970085860997e+002	(-3.38685447537431e+001dB,5.14444468174588e+001°)
1.86208713666286e+002	(-3.37451330221295e+001dB,5.20856360659638e+001°)
1.90546071796323e+002	(-3.36195570505036e+001dB,5.27232160229379e+001°)
1.94984459975803e+002	(-3.34918421738230e+001dB,5.33568928378319e+001°)
1.99526231496887e+002	(-3.33620155111703e+001dB,5.39863821108177e+001°)
2.04173794466952e+002	(-3.32301058640934e+001dB,5.46114094252448e+001°)
2.08929613085403e+002	(-3.30961436108602e+001dB,5.52317108250234e+001°)
2.13796208950222e+002	(-3.29601605974015e+001dB,5.58470332358013e+001°)
2.18776162394954e+002	(-3.28221900257184e+001dB,5.64571348293229e+001°)
2.23872113856832e+002	(-3.26822663405144e+001dB,5.70617853308613e+001°)
2.29086765276776e+002	(-3.25404251147978e+001dB,5.76607662700967e+001°)
2.34422881531991e+002	(-3.23967029351710e+001dB,5.82538711762642e+001°)
2.39883291901947e+002	(-3.22511372874927e+001dB,5.88409057188130e+001°)
2.45470891568501e+002	(-3.21037664435574e+001dB,5.94216877952007e+001°)
2.51188643150956e+002	(-3.19546293493997e+001dB,5.99960475677849e+001°)
2.57039578276885e+002	(-3.18037655157771e+001dB,6.05638274520745e+001°)
2.63026799189536e+002	(-3.16512149113416e+001dB,6.11248820588581e+001°)
2.69153480392690e+002	(-3.14970178589545e+001dB,6.16790780929382e+001°)
2.75422870333815e+002	(-3.13412149355492e+001dB,6.22262942113710e+001°)
2.81838293126443e+002	(-3.11838468758911e+001dB,6.27664208442357e+001°)
2.88403150312659e+002	(-3.10249544805339e+001dB,6.32993599810469e+001°)
2.95120922666637e+002	(-3.08645785282163e+001dB,6.38250249259732e+001°)
3.01995172040200e+002	(-3.07027596928967e+001dB,6.43433400250361e+001°)
3.09029543251357e+002	(-3.05395384655728e+001dB,6.48542403684495e+001°)
3.16227766016836e+002	(-3.03749550809877e+001dB,6.53576714712104e+001°)
3.23593656929626e+002	(-3.02090494492832e+001dB,6.58535889349758e+001°)
3.31131121482589e+002	(-3.00418610926194e+001dB,6.63419580941712e+001°)
3.38844156139200e+002	(-2.98734290867428e+001dB,6.68227536491541e+001°)
3.46736850452529e+002	(-2.97037920074550e+001dB,6.72959592891300e+001°)
3.54813389233573e+002	(-2.95329878819007e+001dB,6.77615673073711e+001°)
3.63078054770099e+002	(-2.93610541445712e+001dB,6.82195782111358e+001°)
3.71535229097170e+002	(-2.91880275978924e+001dB,6.86700003285257e+001°)
3.80189396320558e+002	(-2.90139443772516e+001dB,6.91128494143508e+001°)
3.89045144994278e+002	(-2.88388399202972e+001dB,6.95481482569060e+001°)
3.98107170553494e+002	(-2.86627489403337e+001dB,6.99759262873939e+001°)
4.07380277804110e+002	(-2.84857054036234e+001dB,7.03962191935651e+001°)
4.16869383470332e+002	(-2.83077425103986e+001dB,7.08090685389774e+001°)
4.26579518801589e+002	(-2.81288926793814e+001dB,7.12145213891270e+001°)
4.36515832240163e+002	(-2.79491875356063e+001dB,7.16126299455434e+001°)
4.46683592150960e+002	(-2.77686579013389e+001dB,7.20034511887979e+001°)
4.57088189614872e+002	(-2.75873337898836e+001dB,7.23870465312380e+001°)
4.67735141287195e+002	(-2.74052444020760e+001dB,7.27634814801281e+001°)
4.78630092322635e+002	(-2.72224181252592e+001dB,7.31328253117522e+001°)
4.89778819368443e+002	(-2.70388825345474e+001dB,7.34951507569283e+001°)
5.01187233627268e+002	(-2.68546643961847e+001dB,7.38505336982698e+001°)
5.12861383991361e+002	(-2.66697896728159e+001dB,7.41990528794404e+001°)
5.24807460249769e+002	(-2.64842835304897e+001dB,7.45407896265570e+001°)
5.37031796370249e+002	(-2.62981703472263e+001dB,7.48758275818161e+001°)
5.49540873857620e+002	(-2.61114737229841e+001dB,7.52042524493510e+001°)
5.62341325190345e+002	(-2.59242164908743e+001dB,7.55261517532560e+001°)
5.75439937337152e+002	(-2.57364207294756e+001dB,7.58416146076659e+001°)
