Freq.	V(vin)/I(V1)	V(vo4)
Step Information: Hola=1  (Run: 1/2)
1.00000000000000e+000	(7.68696750460979e+001dB,1.78640009778056e+002°)	(2.73519876563978e-003dB,1.12897396002741e+000°)
1.02329299228075e+000	(7.68695138124610e+001dB,1.78608348443671e+002°)	(2.87941246768876e-003dB,1.15525492098304e+000°)
1.04712854805090e+000	(7.68693449842834e+001dB,1.78575950830744e+002°)	(3.03041851729758e-003dB,1.18214688462023e+000°)
1.07151930523761e+000	(7.68691682040458e+001dB,1.78542799875524e+002°)	(3.18853661952695e-003dB,1.20966400015822e+000°)
1.09647819614318e+000	(7.68689830974268e+001dB,1.78508878122963e+002°)	(3.35410150747809e-003dB,1.23782074047709e+000°)
1.12201845430196e+000	(7.68687892724884e+001dB,1.78474167718047e+002°)	(3.52746364659354e-003dB,1.26663190923200e+000°)
1.14815362149688e+000	(7.68685863188803e+001dB,1.78438650396943e+002°)	(3.70898997194043e-003dB,1.29611264810796e+000°)
1.17489755493953e+000	(7.68683738069725e+001dB,1.78402307477984e+002°)	(3.89906465955760e-003dB,1.32627844420946e+000°)
1.20226443461741e+000	(7.68681512869180e+001dB,1.78365119852489e+002°)	(4.09808993473248e-003dB,1.35714513758301e+000°)
1.23026877081238e+000	(7.68679182877581e+001dB,1.78327067975375e+002°)	(4.30648691654372e-003dB,1.38872892888882e+000°)
1.25892541179417e+000	(7.68676743163769e+001dB,1.78288131855638e+002°)	(4.52469650239228e-003dB,1.42104638719904e+000°)
1.28824955169313e+000	(7.68674188565243e+001dB,1.78248291046605e+002°)	(4.75318029378812e-003dB,1.45411445794537e+000°)
1.31825673855641e+000	(7.68671513676828e+001dB,1.78207524636053e+002°)	(4.99242156464622e-003dB,1.48795047100042e+000°)
1.34896288259165e+000	(7.68668712839401e+001dB,1.78165811236127e+002°)	(5.24292627482408e-003dB,1.52257214889975e+000°)
1.38038426460288e+000	(7.68665780128349e+001dB,1.78123128973062e+002°)	(5.50522413080995e-003dB,1.55799761520802e+000°)
1.41253754462275e+000	(7.68662709340656e+001dB,1.78079455476764e+002°)	(5.77986969494769e-003dB,1.59424540301528e+000°)
1.44543977074593e+000	(7.68659493982415e+001dB,1.78034767870162e+002°)	(6.06744354707715e-003dB,1.63133446358247e+000°)
1.47910838816821e+000	(7.68656127254590e+001dB,1.77989042758433e+002°)	(6.36855349858636e-003dB,1.66928417511300e+000°)
1.51356124843621e+000	(7.68652602039481e+001dB,1.77942256217987e+002°)	(6.68383586380529e-003dB,1.70811435167114e+000°)
1.54881661891248e+000	(7.68648910885157e+001dB,1.77894383785331e+002°)	(7.01395678937979e-003dB,1.74784525222522e+000°)
1.58489319246111e+000	(7.68645045990497e+001dB,1.77845400445702e+002°)	(7.35961364526838e-003dB,1.78849758983292e+000°)
1.62181009735893e+000	(7.68640999188328e+001dB,1.77795280621573e+002°)	(7.72153647970853e-003dB,1.83009254094538e+000°)
1.65958690743756e+000	(7.68636761928694e+001dB,1.77743998160941e+002°)	(8.10048954136114e-003dB,1.87265175484879e+000°)
1.69824365246174e+000	(7.68632325260825e+001dB,1.77691526325479e+002°)	(8.49727287131047e-003dB,1.91619736322092e+000°)
1.73780082874937e+000	(7.68627679814720e+001dB,1.77637837778482e+002°)	(8.91272396802247e-003dB,1.96075198981647e+000°)
1.77827941003892e+000	(7.68622815781292e+001dB,1.77582904572690e+002°)	(9.34771952945040e-003dB,2.00633876025850e+000°)
1.81970085860998e+000	(7.68617722892112e+001dB,1.77526698137915e+002°)	(9.80317727366958e-003dB,2.05298131194516e+000°)
1.86208713666287e+000	(7.68612390398092e+001dB,1.77469189268528e+002°)	(1.02800578442680e-002dB,2.10070380406195e+000°)
1.90546071796325e+000	(7.68606807046944e+001dB,1.77410348110800e+002°)	(1.07793668014740e-002dB,2.14953092768685e+000°)
1.94984459975804e+000	(7.68600961060184e+001dB,1.77350144150072e+002°)	(1.13021567053936e-002dB,2.19948791599556e+000°)
1.99526231496888e+000	(7.68594840108059e+001dB,1.77288546197844e+002°)	(1.18495292929762e-002dB,2.25060055453371e+000°)
2.04173794466953e+000	(7.68588431284737e+001dB,1.77225522378659e+002°)	(1.24226377544459e-002dB,2.30289519158471e+000°)
2.08929613085404e+000	(7.68581721080878e+001dB,1.77161040116948e+002°)	(1.30226891140905e-002dB,2.35639874858008e+000°)
2.13796208950223e+000	(7.68574695356324e+001dB,1.77095066123688e+002°)	(1.36509467166854e-002dB,2.41113873058069e+000°)
2.18776162394955e+000	(7.68567339310413e+001dB,1.77027566383032e+002°)	(1.43087328286993e-002dB,2.46714323678565e+000°)
2.23872113856834e+000	(7.68559637451663e+001dB,1.76958506138808e+002°)	(1.49974313553423e-002dB,2.52444097107879e+000°)
2.29086765276777e+000	(7.68551573565855e+001dB,1.76887849880959e+002°)	(1.57184906805928e-002dB,2.58306125258392e+000°)
2.34422881531992e+000	(7.68543130682602e+001dB,1.76815561331935e+002°)	(1.64734266353509e-002dB,2.64303402621989e+000°)
2.39883291901949e+000	(7.68534291040479e+001dB,1.76741603433037e+002°)	(1.72638255976370e-002dB,2.70438987323388e+000°)
2.45470891568503e+000	(7.68525036050663e+001dB,1.76665938330740e+002°)	(1.80913477321318e-002dB,2.76716002169992e+000°)
2.51188643150958e+000	(7.68515346258787e+001dB,1.76588527363017e+002°)	(1.89577303741398e-002dB,2.83137635695739e+000°)
2.57039578276886e+000	(7.68505201305159e+001dB,1.76509331045690e+002°)	(1.98647915643392e-002dB,2.89707143196397e+000°)
2.63026799189538e+000	(7.68494579883244e+001dB,1.76428309058811e+002°)	(2.08144337395342e-002dB,2.96427847755155e+000°)
2.69153480392691e+000	(7.68483459696180e+001dB,1.76345420233135e+002°)	(2.18086475876377e-002dB,3.03303141254347e+000°)
2.75422870333816e+000	(7.68471817411581e+001dB,1.76260622536664e+002°)	(2.28495160726336e-002dB,3.10336485371509e+000°)
2.81838293126445e+000	(7.68459628614079e+001dB,1.76173873061350e+002°)	(2.39392186350206e-002dB,3.17531412556252e+000°)
2.88403150312660e+000	(7.68446867755728e+001dB,1.76085128009961e+002°)	(2.50800355782852e-002dB,3.24891526984208e+000°)
2.95120922666638e+000	(7.68433508104786e+001dB,1.75994342683106e+002°)	(2.62743526449588e-002dB,3.32420505486183e+000°)
3.01995172040201e+000	(7.68419521691310e+001dB,1.75901471466571e+002°)	(2.75246657929390e-002dB,3.40122098445435e+000°)
3.09029543251359e+000	(7.68404879251272e+001dB,1.75806467818868e+002°)	(2.88335861776412e-002dB,3.48000130662653e+000°)
3.16227766016837e+000	(7.68389550167855e+001dB,1.75709284259141e+002°)	(3.02038453492242e-002dB,3.56058502181191e+000°)
3.23593656929628e+000	(7.68373502409797e+001dB,1.75609872355488e+002°)	(3.16383006730262e-002dB,3.64301189068320e+000°)
3.31131121482591e+000	(7.68356702468040e+001dB,1.75508182713629e+002°)	(3.31399409811572e-002dB,3.72732244149323e+000°)
3.38844156139202e+000	(7.68339115288669e+001dB,1.75404164966146e+002°)	(3.47118924641331e-002dB,3.81355797684820e+000°)
3.46736850452531e+000	(7.68320704203509e+001dB,1.75297767762238e+002°)	(3.63574248120384e-002dB,3.90176057989241e+000°)
3.54813389233575e+000	(7.68301430857761e+001dB,1.75188938758081e+002°)	(3.80799576125251e-002dB,3.99197311981740e+000°)
3.63078054770101e+000	(7.68281255134074e+001dB,1.75077624607939e+002°)	(3.98830670180777e-002dB,4.08423925661962e+000°)
3.71535229097172e+000	(7.68260135074463e+001dB,1.74963770955931e+002°)	(4.17704926880742e-002dB,4.17860344506525e+000°)
3.80189396320560e+000	(7.68238026797560e+001dB,1.74847322428789e+002°)	(4.37461450172674e-002dB,4.27511093773292e+000°)
3.89045144994280e+000	(7.68214884413392e+001dB,1.74728222629467e+002°)	(4.58141126618812e-002dB,4.37380778708644e+000°)
3.98107170553496e+000	(7.68190659934587e+001dB,1.74606414131773e+002°)	(4.79786703696812e-002dB,4.47474084647812e+000°)
4.07380277804112e+000	(7.68165303183276e+001dB,1.74481838476224e+002°)	(5.02442871265936e-002dB,4.57795776996512e+000°)
4.16869383470335e+000	(7.68138761694913e+001dB,1.74354436167062e+002°)	(5.26156346284364e-002dB,4.68350701086247e+000°)
4.26579518801592e+000	(7.68110980617769e+001dB,1.74224146670678e+002°)	(5.50975960888825e-002dB,4.79143781888995e+000°)
4.36515832240165e+000	(7.68081902608496e+001dB,1.74090908415524e+002°)	(5.76952753926630e-002dB,4.90180023582345e+000°)
4.46683592150962e+000	(7.68051467723407e+001dB,1.73954658793657e+002°)	(6.04140066042732e-002dB,5.01464508949528e+000°)
4.57088189614874e+000	(7.68019613305756e+001dB,1.73815334164011e+002°)	(6.32593638424299e-002dB,5.13002398602978e+000°)
4.67735141287197e+000	(7.67986273868224e+001dB,1.73672869857641e+002°)	(6.62371715291635e-002dB,5.24798930015143e+000°)
4.78630092322637e+000	(7.67951380971178e+001dB,1.73527200184999e+002°)	(6.93535150240235e-002dB,5.36859416342690e+000°)
4.89778819368445e+000	(7.67914863096003e+001dB,1.73378258445509e+002°)	(7.26147516516839e-002dB,5.49189245026485e+000°)
5.01187233627271e+000	(7.67876645513807e+001dB,1.73225976939545e+002°)	(7.60275221330989e-002dB,5.61793876150091e+000°)
5.12861383991364e+000	(7.67836650148878e+001dB,1.73070286983100e+002°)	(7.95987624264107e-002dB,5.74678840538829e+000°)
5.24807460249771e+000	(7.67794795437750e+001dB,1.72911118925199e+002°)	(8.33357159887795e-002dB,5.87849737580242e+000°)
5.37031796370252e+000	(7.67750996182355e+001dB,1.72748402168491e+002°)	(8.72459464638130e-002dB,6.01312232743239e+000°)
5.49540873857623e+000	(7.67705163398487e+001dB,1.72582065193048e+002°)	(9.13373508030546e-002dB,6.15072054776230e+000°)
5.62341325190348e+000	(7.67657204158319e+001dB,1.72412035583812e+002°)	(9.56181728251317e-002dB,6.29134992558529e+000°)
5.75439937337156e+000	(7.67607021428504e+001dB,1.72238240061675e+002°)	(1.00097017221821e-001dB,6.43506891584647e+000°)
5.88843655355588e+000	(7.67554513901154e+001dB,1.72060604518914e+002°)	(1.04782864008693e-001dB,6.58193650048215e+000°)
6.02559586074356e+000	(7.67499575820723e+001dB,1.71879054058756e+002°)	(1.09685083429232e-001dB,6.73201214507472e+000°)
6.16595001861481e+000	(7.67442096804396e+001dB,1.71693513039768e+002°)	(1.14813451310150e-001dB,6.88535575095708e+000°)
6.30957344480192e+000	(7.67381961656687e+001dB,1.71503905125293e+002°)	(1.20178164866421e-001dB,7.04202760249598e+000°)
6.45654229034654e+000	(7.67319050178782e+001dB,1.71310153338156e+002°)	(1.25789858958911e-001dB,7.20208830924261e+000°)
6.60693448007594e+000	(7.67253236971437e+001dB,1.71112180121233e+002°)	(1.31659622795452e-001dB,7.36559874259540e+000°)
6.76082975391980e+000	(7.67184391232769e+001dB,1.70909907404002e+002°)	(1.37799017071549e-001dB,7.53261996664818e+000°)
6.91830970918935e+000	(7.67112376549753e+001dB,1.70703256675728e+002°)	(1.44220091543352e-001dB,7.70321316282813e+000°)
7.07945784384136e+000	(7.67037050684315e+001dB,1.70492149065521e+002°)	(1.50935403018113e-001dB,7.87743954796847e+000°)
7.24435960074988e+000	(7.66958265353506e+001dB,1.70276505429846e+002°)	(1.57958033752152e-001dB,8.05536028538796e+000°)
7.41310241300916e+000	(7.66875866004321e+001dB,1.70056246447840e+002°)	(1.65301610235049e-001dB,8.23703638858123e+000°)
7.58577575029182e+000	(7.66789691583290e+001dB,1.69831292724933e+002°)	(1.72980322343423e-001dB,8.42252861709884e+000°)
7.76247116628690e+000	(7.66699574300499e+001dB,1.69601564905375e+002°)	(1.81008942835607e-001dB,8.61189736411482e+000°)
7.94328234724279e+000	(7.66605339388679e+001dB,1.69366983794121e+002°)	(1.89402847160857e-001dB,8.80520253526290e+000°)
8.12830516164097e+000	(7.66506804857883e+001dB,1.69127470488536e+002°)	(1.98178033549791e-001dB,9.00250341826088e+000°)
8.31763771102669e+000	(7.66403781245243e+001dB,1.68882946520699e+002°)	(2.07351143345916e-001dB,9.20385854278579e+000°)
8.51138038202374e+000	(7.66296071360813e+001dB,1.68633334010728e+002°)	(2.16939481537937e-001dB,9.40932553012572e+000°)
8.70963589956078e+000	(7.66183470029937e+001dB,1.68378555831720e+002°)	(2.26961037440543e-001dB,9.61896093207534e+000°)
8.91250938133743e+000	(7.66065763832251e+001dB,1.68118535787030e+002°)	(2.37434505471012e-001dB,9.83282005852899e+000°)
9.12010839355907e+000	(7.65942730837948e+001dB,1.67853198800505e+002°)	(2.48379305958607e-001dB,1.00509567932406e+001°)
9.33254300796988e+000	(7.65814140342028e+001dB,1.67582471120305e+002°)	(2.59815605918602e-001dB,1.02734233971705e+001°)
9.54992586021433e+000	(7.65679752597330e+001dB,1.67306280536943e+002°)	(2.71764339715237e-001dB,1.05002702988884e+001°)
9.77237220955808e+000	(7.65539318546665e+001dB,1.67024556616378e+002°)	(2.84247229529845e-001dB,1.07315458714401e+001°)
9.99999999999997e+000	(7.65392579555533e+001dB,1.66737230948644e+002°)	(2.97286805542056e-001dB,1.09672961951302e+001°)
1.02329299228075e+001	(7.65239267145625e+001dB,1.66444237412964e+002°)	(3.10906425722936e-001dB,1.12075648056241e+001°)
1.04712854805090e+001	(7.65079102730847e+001dB,1.66145512459844e+002°)	(3.25130295132177e-001dB,1.14523924268412e+001°)
1.07151930523760e+001	(7.64911797356519e+001dB,1.65840995410996e+002°)	(3.39983484597906e-001dB,1.17018166880785e+001°)
1.09647819614318e+001	(7.64737051443110e+001dB,1.65530628777787e+002°)	(3.55491948650346e-001dB,1.19558718247727e+001°)
1.12201845430196e+001	(7.64554554536086e+001dB,1.65214358598839e+002°)	(3.71682542572372e-001dB,1.22145883624735e+001°)
1.14815362149688e+001	(7.64363985062856e+001dB,1.64892134797635e+002°)	(3.88583038412336e-001dB,1.24779927834132e+001°)
1.17489755493953e+001	(7.64165010098784e+001dB,1.64563911560712e+002°)	(4.06222139802269e-001dB,1.27461071752665e+001°)
1.20226443461741e+001	(7.63957285144195e+001dB,1.64229647737010e+002°)	(4.24629495408044e-001dB,1.30189488616680e+001°)
1.23026877081238e+001	(7.63740453913475e+001dB,1.63889307259284e+002°)	(4.43835710826952e-001dB,1.32965300140075e+001°)
1.25892541179416e+001	(7.63514148138588e+001dB,1.63542859588103e+002°)	(4.63872358736604e-001dB,1.35788572441961e+001°)
1.28824955169313e+001	(7.63277987389785e+001dB,1.63190280178720e+002°)	(4.84771987094251e-001dB,1.38659311780982e+001°)
1.31825673855640e+001	(7.63031578914592e+001dB,1.62831550971805e+002°)	(5.06568125162330e-001dB,1.41577460093635e+001°)
1.34896288259165e+001	(7.62774517498021e+001dB,1.62466660908335e+002°)	(5.29295287130783e-001dB,1.44542890334178e+001°)
1.38038426460288e+001	(7.62506385346994e+001dB,1.62095606468840e+002°)	(5.52988973103374e-001dB,1.47555401616305e+001°)
1.41253754462275e+001	(7.62226752000448e+001dB,1.61718392237892e+002°)	(5.77685667184754e-001dB,1.50614714154693e+001°)
1.44543977074592e+001	(7.61935174269320e+001dB,1.61335031493530e+002°)	(6.03422832417182e-001dB,1.53720464008071e+001°)
1.47910838816820e+001	(7.61631196208360e+001dB,1.60945546822252e+002°)	(6.30238902290662e-001dB,1.56872197625128e+001°)
1.51356124843620e+001	(7.61314349122911e+001dB,1.60549970759693e+002°)	(6.58173268541005e-001dB,1.60069366194692e+001°)
1.54881661891248e+001	(7.60984151614510e+001dB,1.60148346456709e+002°)	(6.87266264957921e-001dB,1.63311319805471e+001°)
1.58489319246111e+001	(7.60640109668042e+001dB,1.59740728371079e+002°)	(7.17559146896479e-001dB,1.66597301418709e+001°)
1.62181009735892e+001	(7.60281716784043e+001dB,1.59327182984570e+002°)	(7.49094066193194e-001dB,1.69926440659880e+001°)
1.65958690743755e+001	(7.59908454159861e+001dB,1.58907789545005e+002°)	(7.81914041179691e-001dB,1.73297747437420e+001°)
1.69824365246174e+001	(7.59519790922999e+001dB,1.58482640833090e+002°)	(8.16062921476207e-001dB,1.76710105395269e+001°)
1.73780082874937e+001	(7.59115184421034e+001dB,1.58051843953136e+002°)	(8.51585347258965e-001dB,1.80162265210842e+001°)
1.77827941003892e+001	(7.58694080571175e+001dB,1.57615521147407e+002°)	(8.88526702673865e-001dB,1.83652837747631e+001°)
1.81970085860998e+001	(7.58255914273872e+001dB,1.57173810633084e+002°)	(9.26933063085942e-001dB,1.87180287075896e+001°)
1.86208713666286e+001	(7.57800109894698e+001dB,1.56726867460709e+002°)	(9.66851135850692e-001dB,1.90742923374761e+001°)
1.90546071796324e+001	(7.57326081818026e+001dB,1.56274864393418e+002°)	(1.00832819428747e+000dB,1.94338895730131e+001°)
1.94984459975804e+001	(7.56833235076776e+001dB,1.55817992805656e+002°)	(1.05141200454428e+000dB,1.97966184845000e+001°)
1.99526231496887e+001	(7.56320966063153e+001dB,1.55356463599539e+002°)	(1.09615074505865e+000dB,2.01622595678884e+001°)
2.04173794466952e+001	(7.55788663323053e+001dB,1.54890508138482e+002°)	(1.14259291828912e+000dB,2.05305750034239e+001°)
2.08929613085403e+001	(7.55235708440512e+001dB,1.54420379195021e+002°)	(1.19078725445042e+000dB,2.09013079110454e+001°)
2.13796208950222e+001	(7.54661477014557e+001dB,1.53946351912541e+002°)	(1.24078260692815e+000dB,2.12741816042633e+001°)
2.18776162394954e+001	(7.54065339734282e+001dB,1.53468724778073e+002°)	(1.29262783910456e+000dB,2.16488988448589e+001°)
2.23872113856833e+001	(7.53446663555900e+001dB,1.52987820604774e+002°)	(1.34637170229381e+000dB,2.20251411002708e+001°)
2.29086765276776e+001	(7.52804812986824e+001dB,1.52503987521704e+002°)	(1.40206270450673e+000dB,2.24025678059821e+001°)
2.34422881531991e+001	(7.52139151481335e+001dB,1.52017599968894e+002°)	(1.45974896974897e+000dB,2.27808156350183e+001°)
2.39883291901948e+001	(7.51449042952605e+001dB,1.51529059695610e+002°)	(1.51947808754778e+000dB,2.31594977767005e+001°)
2.45470891568502e+001	(7.50733853406440e+001dB,1.51038796759293e+002°)	(1.58129695240092e+000dB,2.35382032269208e+001°)
2.51188643150957e+001	(7.49992952702267e+001dB,1.50547270522560e+002°)	(1.64525159281845e+000dB,2.39164960921448e+001°)
2.57039578276885e+001	(7.49225716446676e+001dB,1.50054970646170e+002°)	(1.71138698959184e+000dB,2.42939149092727e+001°)
2.63026799189537e+001	(7.48431528025952e+001dB,1.49562418075004e+002°)	(1.77974688289995e+000dB,2.46699719836052e+001°)
2.69153480392690e+001	(7.47609780784399e+001dB,1.49070166014007e+002°)	(1.85037356782901e+000dB,2.50441527472521e+001°)
2.75422870333815e+001	(7.46759880355123e+001dB,1.48578800891756e+002°)	(1.92330767778811e+000dB,2.54159151400947e+001°)
2.81838293126444e+001	(7.45881247152009e+001dB,1.48088943307403e+002°)	(1.99858795529653e+000dB,2.57846890159138e+001°)
2.88403150312659e+001	(7.44973319030817e+001dB,1.47601248958435e+002°)	(2.07625100947311e+000dB,2.61498755761387e+001°)
2.95120922666637e+001	(7.44035554129707e+001dB,1.47116409544454e+002°)	(2.15633105951894e+000dB,2.65108468340444e+001°)
3.01995172040200e+001	(7.43067433899572e+001dB,1.46635153642901e+002°)	(2.23885966334743e+000dB,2.68669451126506e+001°)
3.09029543251358e+001	(7.42068466336111e+001dB,1.46158247551598e+002°)	(2.32386543039486e+000dB,2.72174825798017e+001°)
3.16227766016837e+001	(7.41038189426934e+001dB,1.45686496091942e+002°)	(2.41137371753009e+000dB,2.75617408248936e+001°)
3.23593656929627e+001	(7.39976174828195e+001dB,1.45220743365906e+002°)	(2.50140630681323e+000dB,2.78989704822610e+001°)
3.31131121482590e+001	(7.38882031786711e+001dB,1.44761873458914e+002°)	(2.59398106369071e+000dB,2.82283909073564e+001°)
3.38844156139201e+001	(7.37755411325445e+001dB,1.44310811078154e+002°)	(2.68911157408960e+000dB,2.85491899134417e+001°)
3.46736850452530e+001	(7.36596010711051e+001dB,1.43868522115909e+002°)	(2.78680675861821e+000dB,2.88605235776381e+001°)
3.54813389233574e+001	(7.35403578224570e+001dB,1.43436014123196e+002°)	(2.88707046200389e+000dB,2.91615161278632e+001°)
3.63078054770100e+001	(7.34177918257218e+001dB,1.43014336677553e+002°)	(2.98990101568131e+000dB,2.94512599241066e+001°)
3.71535229097171e+001	(7.32918896754476e+001dB,1.42604581626226e+002°)	(3.09529077127085e+000dB,2.97288155505176e+001°)
3.80189396320559e+001	(7.31626447032985e+001dB,1.42207883180859e+002°)	(3.20322560264325e+000dB,2.99932120384925e+001°)
3.89045144994279e+001	(7.30300575994896e+001dB,1.41825417837031e+002°)	(3.31368437411158e+000dB,3.02434472445944e+001°)
3.98107170553495e+001	(7.28941370764423e+001dB,1.41458404086731e+002°)	(3.42663837229034e+000dB,3.04784884118626e+001°)
4.07380277804111e+001	(7.27549005770463e+001dB,1.41108101885930e+002°)	(3.54205069924609e+000dB,3.06972729486501e+001°)
4.16869383470333e+001	(7.26123750297124e+001dB,1.40775811834399e+002°)	(3.65987562464757e+000dB,3.08987094646596e+001°)
4.26579518801591e+001	(7.24665976520910e+001dB,1.40462874016917e+002°)	(3.78005789497558e+000dB,3.10816791109375e+001°)
4.36515832240164e+001	(7.23176168048333e+001dB,1.40170666448638e+002°)	(3.90253199823395e+000dB,3.12450372778437e+001°)
4.46683592150961e+001	(7.21654928960833e+001dB,1.39900603058021e+002°)	(4.02722138330849e+000dB,3.13876157130654e+001°)
