Freq.	V(n003)
1.00000000000000e+000	(-7.44939361198123e+001dB,9.00112815166798e+001°)
1.00230523807790e+000	(-7.44739361039908e+001dB,9.00113075231667e+001°)
1.00461579027840e+000	(-7.44539360880964e+001dB,9.00113335896042e+001°)
1.00693166885180e+000	(-7.44339360721285e+001dB,9.00113597161303e+001°)
1.00925288607668e+000	(-7.44139360560870e+001dB,9.00113859028837e+001°)
1.01157945425990e+000	(-7.43939360399714e+001dB,9.00114121500031e+001°)
1.01391138573668e+000	(-7.43739360237814e+001dB,9.00114384576276e+001°)
1.01624869287070e+000	(-7.43539360075167e+001dB,9.00114648258968e+001°)
1.01859138805412e+000	(-7.43339359911769e+001dB,9.00114912549505e+001°)
1.02093948370768e+000	(-7.43139359747617e+001dB,9.00115177449287e+001°)
1.02329299228075e+000	(-7.42939359582708e+001dB,9.00115442959719e+001°)
1.02565192625141e+000	(-7.42739359417037e+001dB,9.00115709082209e+001°)
1.02801629812647e+000	(-7.42539359250601e+001dB,9.00115975818168e+001°)
1.03038612044162e+000	(-7.42339359083397e+001dB,9.00116243169010e+001°)
1.03276140576140e+000	(-7.42139358915422e+001dB,9.00116511136152e+001°)
1.03514216667934e+000	(-7.41939358746671e+001dB,9.00116779721014e+001°)
1.03752841581801e+000	(-7.41739358577141e+001dB,9.00117048925022e+001°)
1.03992016582906e+000	(-7.41539358406828e+001dB,9.00117318749601e+001°)
1.04231742939330e+000	(-7.41339358235730e+001dB,9.00117589196184e+001°)
1.04472021922080e+000	(-7.41139358063842e+001dB,9.00117860266202e+001°)
1.04712854805090e+000	(-7.40939357891160e+001dB,9.00118131961094e+001°)
1.04954242865232e+000	(-7.40739357717682e+001dB,9.00118404282300e+001°)
1.05196187382322e+000	(-7.40539357543402e+001dB,9.00118677231263e+001°)
1.05438689639126e+000	(-7.40339357368318e+001dB,9.00118950809432e+001°)
1.05681750921366e+000	(-7.40139357192426e+001dB,9.00119225018255e+001°)
1.05925372517729e+000	(-7.39939357015722e+001dB,9.00119499859187e+001°)
1.06169555719872e+000	(-7.39739356838203e+001dB,9.00119775333686e+001°)
1.06414301822431e+000	(-7.39539356659864e+001dB,9.00120051443210e+001°)
1.06659612123026e+000	(-7.39339356480702e+001dB,9.00120328189226e+001°)
1.06905487922266e+000	(-7.39139356300713e+001dB,9.00120605573198e+001°)
1.07151930523761e+000	(-7.38939356119893e+001dB,9.00120883596599e+001°)
1.07398941234124e+000	(-7.38739355938238e+001dB,9.00121162260902e+001°)
1.07646521362983e+000	(-7.38539355755745e+001dB,9.00121441567584e+001°)
1.07894672222983e+000	(-7.38339355572410e+001dB,9.00121721518127e+001°)
1.08143395129794e+000	(-7.38139355388229e+001dB,9.00122002114014e+001°)
1.08392691402120e+000	(-7.37939355203197e+001dB,9.00122283356733e+001°)
1.08642562361706e+000	(-7.37739355017311e+001dB,9.00122565247775e+001°)
1.08893009333343e+000	(-7.37539354830567e+001dB,9.00122847788635e+001°)
1.09144033644876e+000	(-7.37339354642962e+001dB,9.00123130980811e+001°)
1.09395636627209e+000	(-7.37139354454490e+001dB,9.00123414825803e+001°)
1.09647819614318e+000	(-7.36939354265148e+001dB,9.00123699325117e+001°)
1.09900583943252e+000	(-7.36739354074933e+001dB,9.00123984480261e+001°)
1.10153930954141e+000	(-7.36539353883839e+001dB,9.00124270292747e+001°)
1.10407861990207e+000	(-7.36339353691864e+001dB,9.00124556764090e+001°)
1.10662378397766e+000	(-7.36139353499002e+001dB,9.00124843895808e+001°)
1.10917481526240e+000	(-7.35939353305250e+001dB,9.00125131689425e+001°)
1.11173172728159e+000	(-7.35739353110604e+001dB,9.00125420146466e+001°)
1.11429453359173e+000	(-7.35539352915059e+001dB,9.00125709268460e+001°)
1.11686324778056e+000	(-7.35339352718612e+001dB,9.00125999056940e+001°)
1.11943788346715e+000	(-7.35139352521257e+001dB,9.00126289513443e+001°)
1.12201845430196e+000	(-7.34939352322993e+001dB,9.00126580639507e+001°)
1.12460497396692e+000	(-7.34739352123812e+001dB,9.00126872436678e+001°)
1.12719745617551e+000	(-7.34539351923713e+001dB,9.00127164906501e+001°)
1.12979591467280e+000	(-7.34339351722690e+001dB,9.00127458050527e+001°)
1.13240036323556e+000	(-7.34139351520739e+001dB,9.00127751870310e+001°)
1.13501081567231e+000	(-7.33939351317856e+001dB,9.00128046367409e+001°)
1.13762728582343e+000	(-7.33739351114036e+001dB,9.00128341543384e+001°)
1.14024978756117e+000	(-7.33539350909276e+001dB,9.00128637399800e+001°)
1.14287833478977e+000	(-7.33339350703570e+001dB,9.00128933938226e+001°)
1.14551294144553e+000	(-7.33139350496915e+001dB,9.00129231160234e+001°)
1.14815362149688e+000	(-7.32939350289306e+001dB,9.00129529067399e+001°)
1.15080038894443e+000	(-7.32739350080739e+001dB,9.00129827661302e+001°)
1.15345325782109e+000	(-7.32539349871209e+001dB,9.00130126943525e+001°)
1.15611224219210e+000	(-7.32339349660712e+001dB,9.00130426915654e+001°)
1.15877735615512e+000	(-7.32139349449243e+001dB,9.00130727579281e+001°)
1.16144861384034e+000	(-7.31939349236799e+001dB,9.00131028935999e+001°)
1.16412602941049e+000	(-7.31739349023373e+001dB,9.00131330987405e+001°)
1.16680961706096e+000	(-7.31539348808963e+001dB,9.00131633735102e+001°)
1.16949939101987e+000	(-7.31339348593563e+001dB,9.00131937180693e+001°)
1.17219536554813e+000	(-7.31139348377168e+001dB,9.00132241325789e+001°)
1.17489755493953e+000	(-7.30939348159775e+001dB,9.00132546172001e+001°)
1.17760597352080e+000	(-7.30739347941378e+001dB,9.00132851720945e+001°)
1.18032063565173e+000	(-7.30539347721974e+001dB,9.00133157974242e+001°)
1.18304155572516e+000	(-7.30339347501556e+001dB,9.00133464933515e+001°)
1.18576874816716e+000	(-7.30139347280121e+001dB,9.00133772600391e+001°)
1.18850222743702e+000	(-7.29939347057664e+001dB,9.00134080976502e+001°)
1.19124200802737e+000	(-7.29739346834181e+001dB,9.00134390063482e+001°)
1.19398810446427e+000	(-7.29539346609665e+001dB,9.00134699862970e+001°)
1.19674053130724e+000	(-7.29339346384114e+001dB,9.00135010376608e+001°)
1.19949930314938e+000	(-7.29139346157521e+001dB,9.00135321606044e+001°)
1.20226443461741e+000	(-7.28939345929882e+001dB,9.00135633552926e+001°)
1.20503594037179e+000	(-7.28739345701193e+001dB,9.00135946218908e+001°)
1.20781383510678e+000	(-7.28539345471448e+001dB,9.00136259605649e+001°)
1.21059813355048e+000	(-7.28339345240643e+001dB,9.00136573714809e+001°)
1.21338885046497e+000	(-7.28139345008772e+001dB,9.00136888548054e+001°)
1.21618600064636e+000	(-7.27939344775831e+001dB,9.00137204107053e+001°)
1.21898959892486e+000	(-7.27739344541815e+001dB,9.00137520393478e+001°)
1.22179966016487e+000	(-7.27539344306719e+001dB,9.00137837409008e+001°)
1.22461619926504e+000	(-7.27339344070537e+001dB,9.00138155155321e+001°)
1.22743923115840e+000	(-7.27139343833265e+001dB,9.00138473634104e+001°)
1.23026877081238e+000	(-7.26939343594899e+001dB,9.00138792847044e+001°)
1.23310483322890e+000	(-7.26739343355432e+001dB,9.00139112795834e+001°)
1.23594743344451e+000	(-7.26539343114859e+001dB,9.00139433482169e+001°)
1.23879658653036e+000	(-7.26339342873176e+001dB,9.00139754907751e+001°)
1.24165230759241e+000	(-7.26139342630378e+001dB,9.00140077074282e+001°)
1.24451461177138e+000	(-7.25939342386459e+001dB,9.00140399983472e+001°)
1.24738351424294e+000	(-7.25739342141414e+001dB,9.00140723637032e+001°)
1.25025903021771e+000	(-7.25539341895238e+001dB,9.00141048036677e+001°)
1.25314117494141e+000	(-7.25339341647925e+001dB,9.00141373184129e+001°)
1.25602996369487e+000	(-7.25139341399471e+001dB,9.00141699081109e+001°)
1.25892541179416e+000	(-7.24939341149871e+001dB,9.00142025729347e+001°)
1.26182753459066e+000	(-7.24739340899118e+001dB,9.00142353130574e+001°)
1.26473634747115e+000	(-7.24539340647208e+001dB,9.00142681286525e+001°)
1.26765186585784e+000	(-7.24339340394135e+001dB,9.00143010198941e+001°)
1.27057410520854e+000	(-7.24139340139894e+001dB,9.00143339869565e+001°)
1.27350308101666e+000	(-7.23939339884479e+001dB,9.00143670300144e+001°)
1.27643880881134e+000	(-7.23739339627885e+001dB,9.00144001492432e+001°)
1.27938130415752e+000	(-7.23539339370107e+001dB,9.00144333448183e+001°)
1.28233058265602e+000	(-7.23339339111140e+001dB,9.00144666169157e+001°)
1.28528665994361e+000	(-7.23139338850976e+001dB,9.00144999657119e+001°)
1.28824955169313e+000	(-7.22939338589612e+001dB,9.00145333913836e+001°)
1.29121927361353e+000	(-7.22739338327042e+001dB,9.00145668941080e+001°)
1.29419584144998e+000	(-7.22539338063260e+001dB,9.00146004740627e+001°)
1.29717927098395e+000	(-7.22339337798260e+001dB,9.00146341314259e+001°)
1.30016957803328e+000	(-7.22139337532037e+001dB,9.00146678663758e+001°)
1.30316677845229e+000	(-7.21939337264585e+001dB,9.00147016790915e+001°)
1.30617088813183e+000	(-7.21739336995898e+001dB,9.00147355697520e+001°)
1.30918192299940e+000	(-7.21539336725972e+001dB,9.00147695385371e+001°)
1.31219989901920e+000	(-7.21339336454799e+001dB,9.00148035856269e+001°)
1.31522483219223e+000	(-7.21139336182375e+001dB,9.00148377112018e+001°)
1.31825673855640e+000	(-7.20939335908693e+001dB,9.00148719154429e+001°)
1.32129563418657e+000	(-7.20739335633748e+001dB,9.00149061985314e+001°)
1.32434153519466e+000	(-7.20539335357534e+001dB,9.00149405606490e+001°)
1.32739445772973e+000	(-7.20339335080045e+001dB,9.00149750019780e+001°)
1.33045441797808e+000	(-7.20139334801275e+001dB,9.00150095227009e+001°)
1.33352143216332e+000	(-7.19939334521219e+001dB,9.00150441230008e+001°)
1.33659551654643e+000	(-7.19739334239870e+001dB,9.00150788030610e+001°)
1.33967668742593e+000	(-7.19539333957222e+001dB,9.00151135630655e+001°)
1.34276496113786e+000	(-7.19339333673269e+001dB,9.00151484031985e+001°)
1.34586035405594e+000	(-7.19139333388006e+001dB,9.00151833236448e+001°)
1.34896288259164e+000	(-7.18939333101426e+001dB,9.00152183245893e+001°)
1.35207256319427e+000	(-7.18739332813524e+001dB,9.00152534062178e+001°)
1.35518941235103e+000	(-7.18539332524292e+001dB,9.00152885687162e+001°)
1.35831344658715e+000	(-7.18339332233726e+001dB,9.00153238122709e+001°)
1.36144468246594e+000	(-7.18139331941818e+001dB,9.00153591370687e+001°)
1.36458313658892e+000	(-7.17939331648563e+001dB,9.00153945432970e+001°)
1.36772882559584e+000	(-7.17739331353954e+001dB,9.00154300311433e+001°)
1.37088176616484e+000	(-7.17539331057985e+001dB,9.00154656007960e+001°)
1.37404197501251e+000	(-7.17339330760651e+001dB,9.00155012524434e+001°)
1.37720946889394e+000	(-7.17139330461944e+001dB,9.00155369862748e+001°)
1.38038426460288e+000	(-7.16939330161858e+001dB,9.00155728024794e+001°)
1.38356637897177e+000	(-7.16739329860387e+001dB,9.00156087012471e+001°)
1.38675582887188e+000	(-7.16539329557524e+001dB,9.00156446827684e+001°)
1.38995263121334e+000	(-7.16339329253263e+001dB,9.00156807472338e+001°)
1.39315680294529e+000	(-7.16139328947599e+001dB,9.00157168948347e+001°)
1.39636836105593e+000	(-7.15939328640523e+001dB,9.00157531257627e+001°)
1.39958732257261e+000	(-7.15739328332030e+001dB,9.00157894402098e+001°)
1.40281370456195e+000	(-7.15539328022113e+001dB,9.00158258383685e+001°)
1.40604752412990e+000	(-7.15339327710765e+001dB,9.00158623204319e+001°)
1.40928879842186e+000	(-7.15139327397980e+001dB,9.00158988865933e+001°)
1.41253754462274e+000	(-7.14939327083752e+001dB,9.00159355370465e+001°)
1.41579377995707e+000	(-7.14739326768073e+001dB,9.00159722719860e+001°)
1.41905752168908e+000	(-7.14539326450937e+001dB,9.00160090916064e+001°)
1.42232878712281e+000	(-7.14339326132337e+001dB,9.00160459961029e+001°)
1.42560759360218e+000	(-7.14139325812266e+001dB,9.00160829856712e+001°)
1.42889395851109e+000	(-7.13939325490719e+001dB,9.00161200605073e+001°)
1.43218789927353e+000	(-7.13739325167687e+001dB,9.00161572208079e+001°)
1.43548943335364e+000	(-7.13539324843164e+001dB,9.00161944667699e+001°)
1.43879857825583e+000	(-7.13339324517143e+001dB,9.00162317985907e+001°)
1.44211535152486e+000	(-7.13139324189617e+001dB,9.00162692164684e+001°)
1.44543977074592e+000	(-7.12939323860579e+001dB,9.00163067206012e+001°)
1.44877185354475e+000	(-7.12739323530023e+001dB,9.00163443111880e+001°)
1.45211161758773e+000	(-7.12539323197941e+001dB,9.00163819884281e+001°)
1.45545908058195e+000	(-7.12339322864326e+001dB,9.00164197525211e+001°)
1.45881426027534e+000	(-7.12139322529171e+001dB,9.00164576036674e+001°)
1.46217717445671e+000	(-7.11939322192469e+001dB,9.00164955420676e+001°)
1.46554784095590e+000	(-7.11739321854214e+001dB,9.00165335679228e+001°)
1.46892627764385e+000	(-7.11539321514396e+001dB,9.00165716814345e+001°)
1.47231250243271e+000	(-7.11339321173010e+001dB,9.00166098828049e+001°)
1.47570653327588e+000	(-7.11139320830049e+001dB,9.00166481722365e+001°)
1.47910838816819e+000	(-7.10939320485504e+001dB,9.00166865499322e+001°)
1.48251808514594e+000	(-7.10739320139369e+001dB,9.00167250160956e+001°)
1.48593564228699e+000	(-7.10539319791637e+001dB,9.00167635709305e+001°)
1.48936107771090e+000	(-7.10339319442299e+001dB,9.00168022146413e+001°)
1.49279440957898e+000	(-7.10139319091349e+001dB,9.00168409474329e+001°)
1.49623565609442e+000	(-7.09939318738779e+001dB,9.00168797695106e+001°)
1.49968483550236e+000	(-7.09739318384582e+001dB,9.00169186810803e+001°)
1.50314196609001e+000	(-7.09539318028749e+001dB,9.00169576823482e+001°)
1.50660706618673e+000	(-7.09339317671275e+001dB,9.00169967735212e+001°)
1.51008015416413e+000	(-7.09139317312150e+001dB,9.00170359548063e+001°)
1.51356124843619e+000	(-7.08939316951367e+001dB,9.00170752264114e+001°)
1.51705036745932e+000	(-7.08739316588920e+001dB,9.00171145885446e+001°)
1.52054752973248e+000	(-7.08539316224799e+001dB,9.00171540414146e+001°)
1.52405275379728e+000	(-7.08339315858998e+001dB,9.00171935852306e+001°)
1.52756605823806e+000	(-7.08139315491508e+001dB,9.00172332202022e+001°)
1.53108746168202e+000	(-7.07939315122322e+001dB,9.00172729465395e+001°)
1.53461698279928e+000	(-7.07739314751432e+001dB,9.00173127644531e+001°)
1.53815464030302e+000	(-7.07539314378829e+001dB,9.00173526741541e+001°)
1.54170045294954e+000	(-7.07339314004508e+001dB,9.00173926758542e+001°)
1.54525443953840e+000	(-7.07139313628458e+001dB,9.00174327697652e+001°)
1.54881661891247e+000	(-7.06939313250672e+001dB,9.00174729560999e+001°)
1.55238700995807e+000	(-7.06739312871143e+001dB,9.00175132350712e+001°)
1.55596563160506e+000	(-7.06539312489862e+001dB,9.00175536068927e+001°)
1.55955250282694e+000	(-7.06339312106821e+001dB,9.00175940717784e+001°)
1.56314764264094e+000	(-7.06139311722012e+001dB,9.00176346299428e+001°)
1.56675107010813e+000	(-7.05939311335427e+001dB,9.00176752816009e+001°)
1.57036280433354e+000	(-7.05739310947057e+001dB,9.00177160269683e+001°)
1.57398286446620e+000	(-7.05539310556895e+001dB,9.00177568662610e+001°)
1.57761126969933e+000	(-7.05339310164932e+001dB,9.00177977996953e+001°)
1.58124803927037e+000	(-7.05139309771159e+001dB,9.00178388274884e+001°)
1.58489319246110e+000	(-7.04939309375570e+001dB,9.00178799498578e+001°)
1.58854674859776e+000	(-7.04739308978154e+001dB,9.00179211670214e+001°)
1.59220872705115e+000	(-7.04539308578903e+001dB,9.00179624791978e+001°)
1.59587914723672e+000	(-7.04339308177810e+001dB,9.00180038866059e+001°)
1.59955802861465e+000	(-7.04139307774866e+001dB,9.00180453894654e+001°)
1.60324539069002e+000	(-7.03939307370061e+001dB,9.00180869879961e+001°)
1.60694125301286e+000	(-7.03739306963389e+001dB,9.00181286824186e+001°)
1.61064563517825e+000	(-7.03539306554839e+001dB,9.00181704729540e+001°)
1.61435855682647e+000	(-7.03339306144403e+001dB,9.00182123598238e+001°)
1.61808003764305e+000	(-7.03139305732073e+001dB,9.00182543432501e+001°)
1.62181009735891e+000	(-7.02939305317839e+001dB,9.00182964234554e+001°)
1.62554875575047e+000	(-7.02739304901694e+001dB,9.00183386006628e+001°)
1.62929603263970e+000	(-7.02539304483628e+001dB,9.00183808750959e+001°)
1.63305194789432e+000	(-7.02339304063632e+001dB,9.00184232469788e+001°)
1.63681652142779e+000	(-7.02139303641697e+001dB,9.00184657165362e+001°)
1.64058977319952e+000	(-7.01939303217815e+001dB,9.00185082839931e+001°)
1.64437172321491e+000	(-7.01739302791976e+001dB,9.00185509495753e+001°)
1.64816239152549e+000	(-7.01539302364172e+001dB,9.00185937135089e+001°)
1.65196179822900e+000	(-7.01339301934393e+001dB,9.00186365760206e+001°)
1.65576996346951e+000	(-7.01139301502631e+001dB,9.00186795373376e+001°)
1.65958690743754e+000	(-7.00939301068875e+001dB,9.00187225976878e+001°)
1.66341265037015e+000	(-7.00739300633117e+001dB,9.00187657572993e+001°)
1.66724721255104e+000	(-7.00539300195348e+001dB,9.00188090164011e+001°)
1.67109061431069e+000	(-7.00339299755559e+001dB,9.00188523752223e+001°)
1.67494287602642e+000	(-7.00139299313739e+001dB,9.00188958339928e+001°)
1.67880401812254e+000	(-6.99939298869880e+001dB,9.00189393929432e+001°)
1.68267406107045e+000	(-6.99739298423973e+001dB,9.00189830523041e+001°)
1.68655302538872e+000	(-6.99539297976007e+001dB,9.00190268123072e+001°)
1.69044093164324e+000	(-6.99339297525973e+001dB,9.00190706731844e+001°)
1.69433780044731e+000	(-6.99139297073862e+001dB,9.00191146351682e+001°)
1.69824365246172e+000	(-6.98939296619664e+001dB,9.00191586984916e+001°)
1.70215850839493e+000	(-6.98739296163370e+001dB,9.00192028633883e+001°)
1.70608238900310e+000	(-6.98539295704970e+001dB,9.00192471300924e+001°)
1.71001531509027e+000	(-6.98339295244454e+001dB,9.00192914988386e+001°)
1.71395730750840e+000	(-6.98139294781812e+001dB,9.00193359698620e+001°)
1.71790838715757e+000	(-6.97939294317034e+001dB,9.00193805433984e+001°)
1.72186857498599e+000	(-6.97739293850112e+001dB,9.00194252196841e+001°)
1.72583789199018e+000	(-6.97539293381034e+001dB,9.00194699989559e+001°)
1.72981635921508e+000	(-6.97339292909791e+001dB,9.00195148814513e+001°)
1.73380399775412e+000	(-6.97139292436373e+001dB,9.00195598674081e+001°)
1.73780082874935e+000	(-6.96939291960770e+001dB,9.00196049570649e+001°)
1.74180687339159e+000	(-6.96739291482971e+001dB,9.00196501506606e+001°)
1.74582215292048e+000	(-6.96539291002967e+001dB,9.00196954484349e+001°)
1.74984668862464e+000	(-6.96339290520747e+001dB,9.00197408506279e+001°)
1.75388050184174e+000	(-6.96139290036302e+001dB,9.00197863574802e+001°)
1.75792361395867e+000	(-6.95939289549621e+001dB,9.00198319692331e+001°)
1.76197604641161e+000	(-6.95739289060693e+001dB,9.00198776861285e+001°)
1.76603782068614e+000	(-6.95539288569508e+001dB,9.00199235084086e+001°)
1.77010895831740e+000	(-6.95339288076056e+001dB,9.00199694363163e+001°)
1.77418948089014e+000	(-6.95139287580327e+001dB,9.00200154700952e+001°)
1.77827941003890e+000	(-6.94939287082309e+001dB,9.00200616099893e+001°)
1.78237876744807e+000	(-6.94739286581992e+001dB,9.00201078562431e+001°)
1.78648757485203e+000	(-6.94539286079367e+001dB,9.00201542091019e+001°)
1.79060585403527e+000	(-6.94339285574421e+001dB,9.00202006688113e+001°)
1.79473362683250e+000	(-6.94139285067145e+001dB,9.00202472356177e+001°)
1.79887091512876e+000	(-6.93939284557527e+001dB,9.00202939097679e+001°)
1.80301774085955e+000	(-6.93739284045556e+001dB,9.00203406915092e+001°)
1.80717412601090e+000	(-6.93539283531223e+001dB,9.00203875810899e+001°)
1.81134009261958e+000	(-6.93339283014516e+001dB,9.00204345787583e+001°)
1.81551566277311e+000	(-6.93139282495423e+001dB,9.00204816847636e+001°)
1.81970085860996e+000	(-6.92939281973935e+001dB,9.00205288993556e+001°)
1.82389570231961e+000	(-6.92739281450039e+001dB,9.00205762227845e+001°)
1.82810021614272e+000	(-6.92539280923725e+001dB,9.00206236553013e+001°)
1.83231442237119e+000	(-6.92339280394983e+001dB,9.00206711971573e+001°)
1.83653834334832e+000	(-6.92139279863799e+001dB,9.00207188486046e+001°)
1.84077200146893e+000	(-6.91939279330164e+001dB,9.00207666098957e+001°)
1.84501541917945e+000	(-6.91739278794065e+001dB,9.00208144812840e+001°)
1.84926861897805e+000	(-6.91539278255492e+001dB,9.00208624630231e+001°)
1.85353162341479e+000	(-6.91339277714433e+001dB,9.00209105553673e+001°)
1.85780445509167e+000	(-6.91139277170877e+001dB,9.00209587585718e+001°)
1.86208713666284e+000	(-6.90939276624812e+001dB,9.00210070728919e+001°)
1.86637969083464e+000	(-6.90739276076226e+001dB,9.00210554985838e+001°)
1.87068214036577e+000	(-6.90539275525108e+001dB,9.00211040359042e+001°)
1.87499450806739e+000	(-6.90339274971446e+001dB,9.00211526851104e+001°)
1.87931681680324e+000	(-6.90139274415229e+001dB,9.00212014464603e+001°)
1.88364908948977e+000	(-6.89939273856444e+001dB,9.00212503202124e+001°)
1.88799134909627e+000	(-6.89739273295080e+001dB,9.00212993066258e+001°)
