Freq.	V(vout)
1.00000000000000e-002	(-1.20395356139916e+002dB,4.63386573017606e+000°)
1.00230523807790e-002	(-1.20395225306349e+002dB,4.64450121344626e+000°)
1.00461579027840e-002	(-1.20395093872849e+002dB,4.65516089216771e+000°)
1.00693166885180e-002	(-1.20394961836686e+002dB,4.66584481990523e+000°)
1.00925288607668e-002	(-1.20394829195113e+002dB,4.67655305033197e+000°)
1.01157945425990e-002	(-1.20394695945374e+002dB,4.68728563722965e+000°)
1.01391138573668e-002	(-1.20394562084698e+002dB,4.69804263448861e+000°)
1.01624869287070e-002	(-1.20394427610304e+002dB,4.70882409610806e+000°)
1.01859138805412e-002	(-1.20394292519397e+002dB,4.71963007619614e+000°)
1.02093948370768e-002	(-1.20394156809169e+002dB,4.73046062897010e+000°)
1.02329299228075e-002	(-1.20394020476802e+002dB,4.74131580875648e+000°)
1.02565192625141e-002	(-1.20393883519463e+002dB,4.75219566999119e+000°)
1.02801629812647e-002	(-1.20393745934305e+002dB,4.76310026721969e+000°)
1.03038612044162e-002	(-1.20393607718473e+002dB,4.77402965509715e+000°)
1.03276140576140e-002	(-1.20393468869094e+002dB,4.78498388838857e+000°)
1.03514216667934e-002	(-1.20393329383286e+002dB,4.79596302196892e+000°)
1.03752841581801e-002	(-1.20393189258151e+002dB,4.80696711082330e+000°)
1.03992016582906e-002	(-1.20393048490780e+002dB,4.81799621004709e+000°)
1.04231742939330e-002	(-1.20392907078251e+002dB,4.82905037484607e+000°)
1.04472021922080e-002	(-1.20392765017627e+002dB,4.84012966053658e+000°)
1.04712854805090e-002	(-1.20392622305961e+002dB,4.85123412254565e+000°)
1.04954242865232e-002	(-1.20392478940289e+002dB,4.86236381641115e+000°)
1.05196187382322e-002	(-1.20392334917637e+002dB,4.87351879778192e+000°)
1.05438689639126e-002	(-1.20392190235016e+002dB,4.88469912241794e+000°)
1.05681750921366e-002	(-1.20392044889423e+002dB,4.89590484619043e+000°)
1.05925372517729e-002	(-1.20391898877843e+002dB,4.90713602508202e+000°)
1.06169555719872e-002	(-1.20391752197247e+002dB,4.91839271518686e+000°)
1.06414301822431e-002	(-1.20391604844593e+002dB,4.92967497271082e+000°)
1.06659612123026e-002	(-1.20391456816824e+002dB,4.94098285397155e+000°)
1.06905487922266e-002	(-1.20391308110870e+002dB,4.95231641539866e+000°)
1.07151930523760e-002	(-1.20391158723647e+002dB,4.96367571353387e+000°)
1.07398941234124e-002	(-1.20391008652058e+002dB,4.97506080503111e+000°)
1.07646521362983e-002	(-1.20390857892992e+002dB,4.98647174665669e+000°)
1.07894672222983e-002	(-1.20390706443323e+002dB,4.99790859528941e+000°)
1.08143395129794e-002	(-1.20390554299912e+002dB,5.00937140792073e+000°)
1.08392691402120e-002	(-1.20390401459606e+002dB,5.02086024165486e+000°)
1.08642562361706e-002	(-1.20390247919237e+002dB,5.03237515370892e+000°)
1.08893009333343e-002	(-1.20390093675623e+002dB,5.04391620141309e+000°)
1.09144033644875e-002	(-1.20389938725569e+002dB,5.05548344221071e+000°)
1.09395636627209e-002	(-1.20389783065865e+002dB,5.06707693365843e+000°)
1.09647819614318e-002	(-1.20389626693286e+002dB,5.07869673342636e+000°)
1.09900583943252e-002	(-1.20389469604593e+002dB,5.09034289929816e+000°)
1.10153930954141e-002	(-1.20389311796533e+002dB,5.10201548917121e+000°)
1.10407861990207e-002	(-1.20389153265837e+002dB,5.11371456105671e+000°)
1.10662378397766e-002	(-1.20388994009224e+002dB,5.12544017307984e+000°)
1.10917481526240e-002	(-1.20388834023396e+002dB,5.13719238347989e+000°)
1.11173172728159e-002	(-1.20388673305042e+002dB,5.14897125061033e+000°)
1.11429453359173e-002	(-1.20388511850833e+002dB,5.16077683293903e+000°)
1.11686324778056e-002	(-1.20388349657430e+002dB,5.17260918904832e+000°)
1.11943788346715e-002	(-1.20388186721475e+002dB,5.18446837763515e+000°)
1.12201845430196e-002	(-1.20388023039597e+002dB,5.19635445751118e+000°)
1.12460497396692e-002	(-1.20387858608409e+002dB,5.20826748760297e+000°)
1.12719745617551e-002	(-1.20387693424510e+002dB,5.22020752695205e+000°)
1.12979591467279e-002	(-1.20387527484483e+002dB,5.23217463471505e+000°)
1.13240036323555e-002	(-1.20387360784896e+002dB,5.24416887016387e+000°)
1.13501081567231e-002	(-1.20387193322301e+002dB,5.25619029268573e+000°)
1.13762728582343e-002	(-1.20387025093235e+002dB,5.26823896178337e+000°)
1.14024978756117e-002	(-1.20386856094221e+002dB,5.28031493707512e+000°)
1.14287833478977e-002	(-1.20386686321765e+002dB,5.29241827829503e+000°)
1.14551294144553e-002	(-1.20386515772357e+002dB,5.30454904529302e+000°)
1.14815362149688e-002	(-1.20386344442472e+002dB,5.31670729803498e+000°)
1.15080038894443e-002	(-1.20386172328571e+002dB,5.32889309660285e+000°)
1.15345325782109e-002	(-1.20385999427095e+002dB,5.34110650119484e+000°)
1.15611224219210e-002	(-1.20385825734474e+002dB,5.35334757212543e+000°)
1.15877735615512e-002	(-1.20385651247119e+002dB,5.36561636982558e+000°)
1.16144861384034e-002	(-1.20385475961425e+002dB,5.37791295484280e+000°)
1.16412602941049e-002	(-1.20385299873773e+002dB,5.39023738784128e+000°)
1.16680961706096e-002	(-1.20385122980525e+002dB,5.40258972960199e+000°)
1.16949939101987e-002	(-1.20384945278031e+002dB,5.41497004102283e+000°)
1.17219536554813e-002	(-1.20384766762620e+002dB,5.42737838311870e+000°)
1.17489755493953e-002	(-1.20384587430608e+002dB,5.43981481702165e+000°)
1.17760597352080e-002	(-1.20384407278293e+002dB,5.45227940398097e+000°)
1.18032063565173e-002	(-1.20384226301958e+002dB,5.46477220536332e+000°)
1.18304155572516e-002	(-1.20384044497867e+002dB,5.47729328265281e+000°)
1.18576874816716e-002	(-1.20383861862269e+002dB,5.48984269745114e+000°)
1.18850222743701e-002	(-1.20383678391398e+002dB,5.50242051147770e+000°)
1.19124200802737e-002	(-1.20383494081467e+002dB,5.51502678656969e+000°)
1.19398810446427e-002	(-1.20383308928677e+002dB,5.52766158468219e+000°)
1.19674053130724e-002	(-1.20383122929208e+002dB,5.54032496788831e+000°)
1.19949930314937e-002	(-1.20382936079225e+002dB,5.55301699837927e+000°)
1.20226443461741e-002	(-1.20382748374877e+002dB,5.56573773846451e+000°)
1.20503594037179e-002	(-1.20382559812293e+002dB,5.57848725057182e+000°)
1.20781383510677e-002	(-1.20382370387587e+002dB,5.59126559724740e+000°)
1.21059813355048e-002	(-1.20382180096856e+002dB,5.60407284115599e+000°)
1.21338885046497e-002	(-1.20381988936177e+002dB,5.61690904508096e+000°)
1.21618600064636e-002	(-1.20381796901613e+002dB,5.62977427192443e+000°)
1.21898959892486e-002	(-1.20381603989208e+002dB,5.64266858470734e+000°)
1.22179966016487e-002	(-1.20381410194988e+002dB,5.65559204656958e+000°)
1.22461619926504e-002	(-1.20381215514961e+002dB,5.66854472077007e+000°)
1.22743923115840e-002	(-1.20381019945119e+002dB,5.68152667068685e+000°)
1.23026877081238e-002	(-1.20380823481436e+002dB,5.69453795981720e+000°)
1.23310483322890e-002	(-1.20380626119866e+002dB,5.70757865177773e+000°)
1.23594743344450e-002	(-1.20380427856347e+002dB,5.72064881030444e+000°)
1.23879658653036e-002	(-1.20380228686798e+002dB,5.73374849925286e+000°)
1.24165230759240e-002	(-1.20380028607122e+002dB,5.74687778259813e+000°)
1.24451461177138e-002	(-1.20379827613201e+002dB,5.76003672443506e+000°)
1.24738351424294e-002	(-1.20379625700900e+002dB,5.77322538897827e+000°)
1.25025903021771e-002	(-1.20379422866067e+002dB,5.78644384056224e+000°)
1.25314117494141e-002	(-1.20379219104529e+002dB,5.79969214364142e+000°)
1.25602996369487e-002	(-1.20379014412096e+002dB,5.81297036279030e+000°)
1.25892541179416e-002	(-1.20378808784561e+002dB,5.82627856270353e+000°)
1.26182753459066e-002	(-1.20378602217694e+002dB,5.83961680819596e+000°)
1.26473634747114e-002	(-1.20378394707251e+002dB,5.85298516420276e+000°)
1.26765186585784e-002	(-1.20378186248967e+002dB,5.86638369577948e+000°)
1.27057410520853e-002	(-1.20377976838557e+002dB,5.87981246810216e+000°)
1.27350308101665e-002	(-1.20377766471720e+002dB,5.89327154646737e+000°)
1.27643880881134e-002	(-1.20377555144134e+002dB,5.90676099629234e+000°)
1.27938130415752e-002	(-1.20377342851458e+002dB,5.92028088311499e+000°)
1.28233058265601e-002	(-1.20377129589333e+002dB,5.93383127259406e+000°)
1.28528665994361e-002	(-1.20376915353379e+002dB,5.94741223050912e+000°)
1.28824955169313e-002	(-1.20376700139197e+002dB,5.96102382276072e+000°)
1.29121927361353e-002	(-1.20376483942370e+002dB,5.97466611537041e+000°)
1.29419584144998e-002	(-1.20376266758461e+002dB,5.98833917448084e+000°)
1.29717927098395e-002	(-1.20376048583012e+002dB,6.00204306635581e+000°)
1.30016957803328e-002	(-1.20375829411546e+002dB,6.01577785738037e+000°)
1.30316677845229e-002	(-1.20375609239568e+002dB,6.02954361406087e+000°)
1.30617088813183e-002	(-1.20375388062562e+002dB,6.04334040302504e+000°)
1.30918192299940e-002	(-1.20375165875990e+002dB,6.05716829102203e+000°)
1.31219989901920e-002	(-1.20374942675296e+002dB,6.07102734492253e+000°)
1.31522483219223e-002	(-1.20374718455906e+002dB,6.08491763171878e+000°)
1.31825673855640e-002	(-1.20374493213221e+002dB,6.09883921852467e+000°)
1.32129563418657e-002	(-1.20374266942626e+002dB,6.11279217257577e+000°)
1.32434153519466e-002	(-1.20374039639483e+002dB,6.12677656122943e+000°)
1.32739445772973e-002	(-1.20373811299135e+002dB,6.14079245196481e+000°)
1.33045441797808e-002	(-1.20373581916905e+002dB,6.15483991238296e+000°)
1.33352143216332e-002	(-1.20373351488092e+002dB,6.16891901020686e+000°)
1.33659551654643e-002	(-1.20373120007979e+002dB,6.18302981328148e+000°)
1.33967668742593e-002	(-1.20372887471825e+002dB,6.19717238957385e+000°)
1.34276496113786e-002	(-1.20372653874869e+002dB,6.21134680717309e+000°)
1.34586035405594e-002	(-1.20372419212330e+002dB,6.22555313429048e+000°)
1.34896288259164e-002	(-1.20372183479404e+002dB,6.23979143925950e+000°)
1.35207256319427e-002	(-1.20371946671268e+002dB,6.25406179053590e+000°)
1.35518941235103e-002	(-1.20371708783077e+002dB,6.26836425669770e+000°)
1.35831344658714e-002	(-1.20371469809964e+002dB,6.28269890644530e+000°)
1.36144468246594e-002	(-1.20371229747042e+002dB,6.29706580860149e+000°)
1.36458313658892e-002	(-1.20370988589400e+002dB,6.31146503211148e+000°)
1.36772882559584e-002	(-1.20370746332108e+002dB,6.32589664604299e+000°)
1.37088176616484e-002	(-1.20370502970214e+002dB,6.34036071958624e+000°)
1.37404197501251e-002	(-1.20370258498744e+002dB,6.35485732205402e+000°)
1.37720946889394e-002	(-1.20370012912701e+002dB,6.36938652288171e+000°)
1.38038426460288e-002	(-1.20369766207067e+002dB,6.38394839162734e+000°)
1.38356637897177e-002	(-1.20369518376802e+002dB,6.39854299797161e+000°)
1.38675582887188e-002	(-1.20369269416845e+002dB,6.41317041171792e+000°)
1.38995263121334e-002	(-1.20369019322110e+002dB,6.42783070279241e+000°)
1.39315680294529e-002	(-1.20368768087492e+002dB,6.44252394124399e+000°)
1.39636836105593e-002	(-1.20368515707861e+002dB,6.45725019724437e+000°)
1.39958732257261e-002	(-1.20368262178066e+002dB,6.47200954108807e+000°)
1.40281370456195e-002	(-1.20368007492932e+002dB,6.48680204319248e+000°)
1.40604752412990e-002	(-1.20367751647264e+002dB,6.50162777409787e+000°)
1.40928879842186e-002	(-1.20367494635841e+002dB,6.51648680446737e+000°)
1.41253754462274e-002	(-1.20367236453422e+002dB,6.53137920508708e+000°)
1.41579377995707e-002	(-1.20366977094741e+002dB,6.54630504686601e+000°)
1.41905752168908e-002	(-1.20366716554510e+002dB,6.56126440083612e+000°)
1.42232878712281e-002	(-1.20366454827418e+002dB,6.57625733815237e+000°)
1.42560759360218e-002	(-1.20366191908129e+002dB,6.59128393009270e+000°)
1.42889395851109e-002	(-1.20365927791287e+002dB,6.60634424805803e+000°)
1.43218789927353e-002	(-1.20365662471509e+002dB,6.62143836357232e+000°)
1.43548943335364e-002	(-1.20365395943392e+002dB,6.63656634828254e+000°)
1.43879857825583e-002	(-1.20365128201506e+002dB,6.65172827395868e+000°)
1.44211535152486e-002	(-1.20364859240399e+002dB,6.66692421249380e+000°)
1.44543977074592e-002	(-1.20364589054595e+002dB,6.68215423590395e+000°)
1.44877185354475e-002	(-1.20364317638595e+002dB,6.69741841632827e+000°)
1.45211161758773e-002	(-1.20364044986874e+002dB,6.71271682602892e+000°)
1.45545908058195e-002	(-1.20363771093885e+002dB,6.72804953739110e+000°)
1.45881426027534e-002	(-1.20363495954056e+002dB,6.74341662292307e+000°)
1.46217717445671e-002	(-1.20363219561789e+002dB,6.75881815525612e+000°)
1.46554784095590e-002	(-1.20362941911465e+002dB,6.77425420714455e+000°)
1.46892627764385e-002	(-1.20362662997438e+002dB,6.78972485146570e+000°)
1.47231250243271e-002	(-1.20362382814037e+002dB,6.80523016121992e+000°)
1.47570653327588e-002	(-1.20362101355569e+002dB,6.82077020953056e+000°)
1.47910838816819e-002	(-1.20361818616313e+002dB,6.83634506964394e+000°)
1.48251808514594e-002	(-1.20361534590527e+002dB,6.85195481492938e+000°)
1.48593564228699e-002	(-1.20361249272439e+002dB,6.86759951887913e+000°)
1.48936107771090e-002	(-1.20360962656256e+002dB,6.88327925510836e+000°)
1.49279440957898e-002	(-1.20360674736158e+002dB,6.89899409735518e+000°)
1.49623565609442e-002	(-1.20360385506301e+002dB,6.91474411948058e+000°)
1.49968483550236e-002	(-1.20360094960813e+002dB,6.93052939546839e+000°)
1.50314196609001e-002	(-1.20359803093800e+002dB,6.94634999942531e+000°)
1.50660706618673e-002	(-1.20359509899339e+002dB,6.96220600558081e+000°)
1.51008015416413e-002	(-1.20359215371484e+002dB,6.97809748828716e+000°)
1.51356124843619e-002	(-1.20358919504261e+002dB,6.99402452201935e+000°)
1.51705036745932e-002	(-1.20358622291672e+002dB,7.00998718137510e+000°)
1.52054752973248e-002	(-1.20358323727691e+002dB,7.02598554107474e+000°)
1.52405275379728e-002	(-1.20358023806268e+002dB,7.04201967596131e+000°)
1.52756605823806e-002	(-1.20357722521326e+002dB,7.05808966100035e+000°)
1.53108746168202e-002	(-1.20357419866759e+002dB,7.07419557128001e+000°)
1.53461698279928e-002	(-1.20357115836439e+002dB,7.09033748201087e+000°)
1.53815464030302e-002	(-1.20356810424209e+002dB,7.10651546852601e+000°)
1.54170045294954e-002	(-1.20356503623885e+002dB,7.12272960628088e+000°)
1.54525443953840e-002	(-1.20356195429257e+002dB,7.13897997085327e+000°)
1.54881661891247e-002	(-1.20355885834089e+002dB,7.15526663794325e+000°)
1.55238700995807e-002	(-1.20355574832116e+002dB,7.17158968337315e+000°)
1.55596563160506e-002	(-1.20355262417046e+002dB,7.18794918308743e+000°)
1.55955250282694e-002	(-1.20354948582563e+002dB,7.20434521315270e+000°)
1.56314764264094e-002	(-1.20354633322319e+002dB,7.22077784975757e+000°)
1.56675107010813e-002	(-1.20354316629943e+002dB,7.23724716921266e+000°)
1.57036280433354e-002	(-1.20353998499033e+002dB,7.25375324795049e+000°)
1.57398286446620e-002	(-1.20353678923161e+002dB,7.27029616252541e+000°)
1.57761126969933e-002	(-1.20353357895871e+002dB,7.28687598961354e+000°)
1.58124803927037e-002	(-1.20353035410680e+002dB,7.30349280601271e+000°)
1.58489319246110e-002	(-1.20352711461075e+002dB,7.32014668864231e+000°)
1.58854674859776e-002	(-1.20352386040516e+002dB,7.33683771454332e+000°)
1.59220872705115e-002	(-1.20352059142435e+002dB,7.35356596087811e+000°)
1.59587914723672e-002	(-1.20351730760237e+002dB,7.37033150493045e+000°)
1.59955802861465e-002	(-1.20351400887295e+002dB,7.38713442410539e+000°)
1.60324539069002e-002	(-1.20351069516956e+002dB,7.40397479592911e+000°)
1.60694125301286e-002	(-1.20350736642539e+002dB,7.42085269804895e+000°)
1.61064563517825e-002	(-1.20350402257332e+002dB,7.43776820823319e+000°)
1.61435855682647e-002	(-1.20350066354595e+002dB,7.45472140437103e+000°)
1.61808003764305e-002	(-1.20349728927560e+002dB,7.47171236447248e+000°)
1.62181009735891e-002	(-1.20349389969429e+002dB,7.48874116666820e+000°)
1.62554875575047e-002	(-1.20349049473375e+002dB,7.50580788920949e+000°)
1.62929603263971e-002	(-1.20348707432541e+002dB,7.52291261046810e+000°)
1.63305194789432e-002	(-1.20348363840042e+002dB,7.54005540893614e+000°)
1.63681652142779e-002	(-1.20348018688961e+002dB,7.55723636322599e+000°)
1.64058977319952e-002	(-1.20347671972353e+002dB,7.57445555207018e+000°)
1.64437172321491e-002	(-1.20347323683245e+002dB,7.59171305432123e+000°)
1.64816239152549e-002	(-1.20346973814629e+002dB,7.60900894895159e+000°)
1.65196179822900e-002	(-1.20346622359472e+002dB,7.62634331505345e+000°)
1.65576996346951e-002	(-1.20346269310709e+002dB,7.64371623183866e+000°)
1.65958690743754e-002	(-1.20345914661243e+002dB,7.66112777863860e+000°)
1.66341265037015e-002	(-1.20345558403949e+002dB,7.67857803490403e+000°)
1.66724721255104e-002	(-1.20345200531671e+002dB,7.69606708020493e+000°)
1.67109061431069e-002	(-1.20344841037221e+002dB,7.71359499423043e+000°)
1.67494287602642e-002	(-1.20344479913382e+002dB,7.73116185678859e+000°)
1.67880401812254e-002	(-1.20344117152905e+002dB,7.74876774780633e+000°)
1.68267406107045e-002	(-1.20343752748510e+002dB,7.76641274732922e+000°)
1.68655302538872e-002	(-1.20343386692886e+002dB,7.78409693552137e+000°)
1.69044093164324e-002	(-1.20343018978691e+002dB,7.80182039266526e+000°)
1.69433780044731e-002	(-1.20342649598553e+002dB,7.81958319916159e+000°)
1.69824365246172e-002	(-1.20342278545064e+002dB,7.83738543552912e+000°)
1.70215850839493e-002	(-1.20341905810791e+002dB,7.85522718240451e+000°)
1.70608238900310e-002	(-1.20341531388262e+002dB,7.87310852054215e+000°)
1.71001531509027e-002	(-1.20341155269980e+002dB,7.89102953081401e+000°)
1.71395730750841e-002	(-1.20340777448411e+002dB,7.90899029420942e+000°)
1.71790838715757e-002	(-1.20340397915991e+002dB,7.92699089183496e+000°)
1.72186857498599e-002	(-1.20340016665124e+002dB,7.94503140491424e+000°)
1.72583789199018e-002	(-1.20339633688180e+002dB,7.96311191478775e+000°)
1.72981635921508e-002	(-1.20339248977499e+002dB,7.98123250291264e+000°)
1.73380399775412e-002	(-1.20338862525385e+002dB,7.99939325086256e+000°)
1.73780082874935e-002	(-1.20338474324114e+002dB,8.01759424032746e+000°)
1.74180687339159e-002	(-1.20338084365924e+002dB,8.03583555311341e+000°)
1.74582215292048e-002	(-1.20337692643023e+002dB,8.05411727114238e+000°)
1.74984668862464e-002	(-1.20337299147586e+002dB,8.07243947645208e+000°)
1.75388050184174e-002	(-1.20336903871753e+002dB,8.09080225119568e+000°)
1.75792361395867e-002	(-1.20336506807633e+002dB,8.10920567764172e+000°)
1.76197604641161e-002	(-1.20336107947298e+002dB,8.12764983817380e+000°)
1.76603782068614e-002	(-1.20335707282791e+002dB,8.14613481529040e+000°)
1.77010895831740e-002	(-1.20335304806116e+002dB,8.16466069160468e+000°)
1.77418948089014e-002	(-1.20334900509248e+002dB,8.18322754984424e+000°)
1.77827941003890e-002	(-1.20334494384125e+002dB,8.20183547285092e+000°)
1.78237876744807e-002	(-1.20334086422652e+002dB,8.22048454358053e+000°)
1.78648757485203e-002	(-1.20333676616698e+002dB,8.23917484510267e+000°)
1.79060585403527e-002	(-1.20333264958101e+002dB,8.25790646060046e+000°)
1.79473362683250e-002	(-1.20332851438661e+002dB,8.27667947337035e+000°)
1.79887091512877e-002	(-1.20332436050145e+002dB,8.29549396682181e+000°)
1.80301774085955e-002	(-1.20332018784285e+002dB,8.31435002447714e+000°)
1.80717412601090e-002	(-1.20331599632777e+002dB,8.33324772997120e+000°)
1.81134009261958e-002	(-1.20331178587285e+002dB,8.35218716705117e+000°)
1.81551566277311e-002	(-1.20330755639434e+002dB,8.37116841957629e+000°)
1.81970085860996e-002	(-1.20330330780816e+002dB,8.39019157151760e+000°)
1.82389570231961e-002	(-1.20329904002986e+002dB,8.40925670695766e+000°)
1.82810021614272e-002	(-1.20329475297466e+002dB,8.42836391009035e+000°)
1.83231442237119e-002	(-1.20329044655738e+002dB,8.44751326522050e+000°)
1.83653834334832e-002	(-1.20328612069252e+002dB,8.46670485676371e+000°)
1.84077200146893e-002	(-1.20328177529421e+002dB,8.48593876924600e+000°)
1.84501541917945e-002	(-1.20327741027621e+002dB,8.50521508730359e+000°)
1.84926861897805e-002	(-1.20327302555192e+002dB,8.52453389568257e+000°)
1.85353162341479e-002	(-1.20326862103438e+002dB,8.54389527923863e+000°)
1.85780445509167e-002	(-1.20326419663625e+002dB,8.56329932293677e+000°)
1.86208713666284e-002	(-1.20325975226985e+002dB,8.58274611185099e+000°)
1.86637969083464e-002	(-1.20325528784711e+002dB,8.60223573116400e+000°)
1.87068214036577e-002	(-1.20325080327959e+002dB,8.62176826616693e+000°)
1.87499450806739e-002	(-1.20324629847849e+002dB,8.64134380225899e+000°)
1.87931681680324e-002	(-1.20324177335464e+002dB,8.66096242494716e+000°)
1.88364908948977e-002	(-1.20323722781848e+002dB,8.68062421984592e+000°)
1.88799134909627e-002	(-1.20323266178008e+002dB,8.70032927267687e+000°)
