Freq.	V(N002,N003)
1.00000000000000e+000	(-6.34666405968881e-008dB,-8.91000705692224e-003°)
1.00230523807790e+000	(-6.37595897827879e-008dB,-8.93054674433115e-003°)
1.00461579027840e+000	(-6.40538909558157e-008dB,-8.95113378060865e-003°)
1.00693166885180e+000	(-6.43495479732815e-008dB,-8.97176827490517e-003°)
1.00925288607668e+000	(-6.46465733714426e-008dB,-8.99245033662272e-003°)
1.01157945425990e+000	(-6.49449681146265e-008dB,-9.01318007541553e-003°)
1.01391138573668e+000	(-6.52447408817808e-008dB,-9.03395760119060e-003°)
1.01624869287070e+000	(-6.55458974588704e-008dB,-9.05478302410830e-003°)
1.01859138805412e+000	(-6.58484436318603e-008dB,-9.07565645458293e-003°)
1.02093948370768e+000	(-6.61523851867154e-008dB,-9.09657800328334e-003°)
1.02329299228075e+000	(-6.64577317667107e-008dB,-9.11754778113349e-003°)
1.02565192625141e+000	(-6.67644872291561e-008dB,-9.13856589931305e-003°)
1.02801629812647e+000	(-6.70726573600168e-008dB,-9.15963246925797e-003°)
1.03038612044162e+000	(-6.73822508382401e-008dB,-9.18074760266110e-003°)
1.03276140576140e+000	(-6.76932734497909e-008dB,-9.20191141147277e-003°)
1.03514216667934e+000	(-6.80057309806344e-008dB,-9.22312400790138e-003°)
1.03752841581801e+000	(-6.83196311453905e-008dB,-9.24438550441398e-003°)
1.03992016582906e+000	(-6.86349797300240e-008dB,-9.26569601373693e-003°)
1.04231742939330e+000	(-6.89517854134826e-008dB,-9.28705564885639e-003°)
1.04472021922080e+000	(-6.92700501244212e-008dB,-9.30846452301902e-003°)
1.04712854805090e+000	(-6.95897892920797e-008dB,-9.32992274973253e-003°)
1.04954242865232e+000	(-6.99109990591483e-008dB,-9.35143044276629e-003°)
1.05196187382322e+000	(-7.02336948548667e-008dB,-9.37298771615195e-003°)
1.05438689639126e+000	(-7.05578786078901e-008dB,-9.39459468418400e-003°)
1.05681750921366e+000	(-7.08835589971659e-008dB,-9.41625146142043e-003°)
1.05925372517729e+000	(-7.12107418086592e-008dB,-9.43795816268332e-003°)
1.06169555719872e+000	(-7.15394366856447e-008dB,-9.45971490305941e-003°)
1.06414301822431e+000	(-7.18696465211052e-008dB,-9.48152179790077e-003°)
1.06659612123026e+000	(-7.22013819226430e-008dB,-9.50337896282538e-003°)
1.06905487922266e+000	(-7.25346486762232e-008dB,-9.52528651371773e-003°)
1.07151930523761e+000	(-7.28694535321382e-008dB,-9.54724456672947e-003°)
1.07398941234124e+000	(-7.32058032406805e-008dB,-9.56925323828001e-003°)
1.07646521362983e+000	(-7.35437074451251e-008dB,-9.59131264505711e-003°)
1.07894672222983e+000	(-7.38831680741271e-008dB,-9.61342290401756e-003°)
1.08143395129794e+000	(-7.42241966996164e-008dB,-9.63558413238771e-003°)
1.08392691402120e+000	(-7.45668020005405e-008dB,-9.65779644766421e-003°)
1.08642562361706e+000	(-7.49109859055544e-008dB,-9.68005996761451e-003°)
1.08893009333343e+000	(-7.52567580579331e-008dB,-9.70237481027756e-003°)
1.09144033644876e+000	(-7.56041281009516e-008dB,-9.72474109396445e-003°)
1.09395636627209e+000	(-7.59530998919199e-008dB,-9.74715893725896e-003°)
1.09647819614318e+000	(-7.63036830741130e-008dB,-9.76962845901827e-003°)
1.09900583943252e+000	(-7.66558872908058e-008dB,-9.79214977837351e-003°)
1.10153930954141e+000	(-7.70097144706535e-008dB,-9.81472301473048e-003°)
1.10407861990207e+000	(-7.73651752212586e-008dB,-9.83734828777022e-003°)
1.10662378397766e+000	(-7.77222782215684e-008dB,-9.86002571744966e-003°)
1.10917481526240e+000	(-7.80810263645656e-008dB,-9.88275542400226e-003°)
1.11173172728159e+000	(-7.84414321865076e-008dB,-9.90553752793866e-003°)
1.11429453359173e+000	(-7.88035005090320e-008dB,-9.92837215004729e-003°)
1.11686324778056e+000	(-7.91672409754137e-008dB,-9.95125941139503e-003°)
1.11943788346715e+000	(-7.95326613002728e-008dB,-9.97419943332785e-003°)
1.12201845430196e+000	(-7.98997672695742e-008dB,-9.99719233747146e-003°)
1.12460497396692e+000	(-8.02685675622656e-008dB,-1.00202382457319e-002°)
1.12719745617551e+000	(-8.06390708572944e-008dB,-1.00433372802963e-002°)
1.12979591467280e+000	(-8.10112819762982e-008dB,-1.00664895636335e-002°)
1.13240036323556e+000	(-8.13852144198619e-008dB,-1.00896952184945e-002°)
1.13501081567231e+000	(-8.17608710809681e-008dB,-1.01129543679133e-002°)
1.13762728582343e+000	(-8.21382625672192e-008dB,-1.01362671352077e-002°)
1.14024978756117e+000	(-8.25173946645805e-008dB,-1.01596336439796e-002°)
1.14287833478977e+000	(-8.28982779806542e-008dB,-1.01830540181160e-002°)
1.14551294144553e+000	(-8.32809192657331e-008dB,-1.02065283817892e-002°)
1.14815362149688e+000	(-8.36653271987645e-008dB,-1.02300568594581e-002°)
1.15080038894443e+000	(-8.40515085300411e-008dB,-1.02536395758682e-002°)
1.15345325782109e+000	(-8.44394719385104e-008dB,-1.02772766560527e-002°)
1.15611224219210e+000	(-8.48292280317748e-008dB,-1.03009682253331e-002°)
1.15877735615512e+000	(-8.52207816314721e-008dB,-1.03247144093198e-002°)
1.16144861384034e+000	(-8.56141423808771e-008dB,-1.03485153339125e-002°)
1.16412602941049e+000	(-8.60093189589374e-008dB,-1.03723711253015e-002°)
1.16680961706096e+000	(-8.64063210089281e-008dB,-1.03962819099677e-002°)
1.16949939101987e+000	(-8.68051552811416e-008dB,-1.04202478146838e-002°)
1.17219536554813e+000	(-8.72058304545256e-008dB,-1.04442689665145e-002°)
1.17489755493953e+000	(-8.76083523150452e-008dB,-1.04683454928176e-002°)
1.17760597352080e+000	(-8.80127333989578e-008dB,-1.04924775212445e-002°)
1.18032063565173e+000	(-8.84189823852109e-008dB,-1.05166651797406e-002°)
1.18304155572516e+000	(-8.88271060240972e-008dB,-1.05409085965467e-002°)
1.18576874816716e+000	(-8.92371139588916e-008dB,-1.05652079001988e-002°)
1.18850222743702e+000	(-8.96490119755594e-008dB,-1.05895632195294e-002°)
1.19124200802737e+000	(-9.00628135746854e-008dB,-1.06139746836680e-002°)
1.19398810446427e+000	(-9.04785255065623e-008dB,-1.06384424220417e-002°)
1.19674053130724e+000	(-9.08961525928276e-008dB,-1.06629665643760e-002°)
1.19949930314938e+000	(-9.13157131557039e-008dB,-1.06875472406955e-002°)
1.20226443461741e+000	(-9.17372081595187e-008dB,-1.07121845813245e-002°)
1.20503594037179e+000	(-9.21606472475472e-008dB,-1.07368787168876e-002°)
1.20781383510678e+000	(-9.25860410273918e-008dB,-1.07616297783107e-002°)
1.21059813355048e+000	(-9.30133981780003e-008dB,-1.07864378968215e-002°)
1.21338885046497e+000	(-9.34427293069750e-008dB,-1.08113032039500e-002°)
1.21618600064636e+000	(-9.38740421289361e-008dB,-1.08362258315298e-002°)
1.21898959892486e+000	(-9.43073433941763e-008dB,-1.08612059116979e-002°)
1.22179966016487e+000	(-9.47426456389530e-008dB,-1.08862435768965e-002°)
1.22461619926504e+000	(-9.51799594708688e-008dB,-1.09113389598725e-002°)
1.22743923115840e+000	(-9.56192897115613e-008dB,-1.09364921936793e-002°)
1.23026877081238e+000	(-9.60606488972882e-008dB,-1.09617034116768e-002°)
1.23310483322890e+000	(-9.65040457069969e-008dB,-1.09869727475322e-002°)
1.23594743344451e+000	(-9.69494868909802e-008dB,-1.10123003352212e-002°)
1.23879658653036e+000	(-9.73969859498231e-008dB,-1.10376863090280e-002°)
1.24165230759241e+000	(-9.78465496338181e-008dB,-1.10631308035465e-002°)
1.24451461177138e+000	(-9.82981875862405e-008dB,-1.10886339536809e-002°)
1.24738351424294e+000	(-9.87519123433476e-008dB,-1.11141958946463e-002°)
1.25025903021771e+000	(-9.92077306554323e-008dB,-1.11398167619696e-002°)
1.25314117494141e+000	(-9.96656521657696e-008dB,-1.11654966914901e-002°)
1.25602996369487e+000	(-1.00125689410617e-007dB,-1.11912358193601e-002°)
1.25892541179416e+000	(-1.00587849140267e-007dB,-1.12170342820459e-002°)
1.26182753459066e+000	(-1.01052140033668e-007dB,-1.12428922163285e-002°)
1.26473634747115e+000	(-1.01518575591404e-007dB,-1.12688097593040e-002°)
1.26765186585784e+000	(-1.01987164492424e-007dB,-1.12947870483845e-002°)
1.27057410520854e+000	(-1.02457915415674e-007dB,-1.13208242212992e-002°)
1.27350308101666e+000	(-1.02930839933085e-007dB,-1.13469214160944e-002°)
1.27643880881134e+000	(-1.03405946723604e-007dB,-1.13730787711349e-002°)
1.27938130415752e+000	(-1.03883245430508e-007dB,-1.13992964251043e-002°)
1.28233058265602e+000	(-1.04362752447362e-007dB,-1.14255745170061e-002°)
1.28528665994361e+000	(-1.04844465845513e-007dB,-1.14519131861639e-002°)
1.28824955169313e+000	(-1.05328407804493e-007dB,-1.14783125722230e-002°)
1.29121927361353e+000	(-1.05814580252957e-007dB,-1.15047728151500e-002°)
1.29419584144998e+000	(-1.06302998620146e-007dB,-1.15312940552346e-002°)
1.29717927098395e+000	(-1.06793670620679e-007dB,-1.15578764330897e-002°)
1.30016957803328e+000	(-1.07286608790814e-007dB,-1.15845200896525e-002°)
1.30316677845229e+000	(-1.07781819880844e-007dB,-1.16112251661849e-002°)
1.30617088813183e+000	(-1.08279318355681e-007dB,-1.16379918042746e-002°)
1.30918192299940e+000	(-1.08779112894274e-007dB,-1.16648201458355e-002°)
1.31219989901920e+000	(-1.09281215068552e-007dB,-1.16917103331090e-002°)
1.31522483219223e+000	(-1.09785635486117e-007dB,-1.17186625086640e-002°)
1.31825673855640e+000	(-1.10292381861591e-007dB,-1.17456768153982e-002°)
1.32129563418657e+000	(-1.10801468659886e-007dB,-1.17727533965390e-002°)
1.32434153519466e+000	(-1.11312903595621e-007dB,-1.17998923956434e-002°)
1.32739445772973e+000	(-1.11826701133710e-007dB,-1.18270939565999e-002°)
1.33045441797808e+000	(-1.12342868988773e-007dB,-1.18543582236283e-002°)
1.33352143216332e+000	(-1.12861420661395e-007dB,-1.18816853412811e-002°)
1.33659551654643e+000	(-1.13382366759179e-007dB,-1.19090754544439e-002°)
1.33967668742593e+000	(-1.13905714996745e-007dB,-1.19365287083364e-002°)
1.34276496113786e+000	(-1.14431479839005e-007dB,-1.19640452485128e-002°)
1.34586035405594e+000	(-1.14959670929235e-007dB,-1.19916252208632e-002°)
1.34896288259164e+000	(-1.15490301768019e-007dB,-1.20192687716139e-002°)
1.35207256319427e+000	(-1.16023380069980e-007dB,-1.20469760473281e-002°)
1.35518941235103e+000	(-1.16558920300027e-007dB,-1.20747471949070e-002°)
1.35831344658715e+000	(-1.17096931137111e-007dB,-1.21025823615905e-002°)
1.36144468246594e+000	(-1.17637426081815e-007dB,-1.21304816949579e-002°)
1.36458313658892e+000	(-1.18180416706071e-007dB,-1.21584453429286e-002°)
1.36772882559584e+000	(-1.18725911688825e-007dB,-1.21864734537631e-002°)
1.37088176616484e+000	(-1.19273926459318e-007dB,-1.22145661760635e-002°)
1.37404197501251e+000	(-1.19824469696498e-007dB,-1.22427236587748e-002°)
1.37720946889394e+000	(-1.20377552972295e-007dB,-1.22709460511850e-002°)
1.38038426460288e+000	(-1.20933191715949e-007dB,-1.22992335029265e-002°)
1.38356637897177e+000	(-1.21491393642081e-007dB,-1.23275861639764e-002°)
1.38675582887188e+000	(-1.22052173215602e-007dB,-1.23560041846577e-002°)
1.38995263121334e+000	(-1.22615541044117e-007dB,-1.23844877156400e-002°)
1.39315680294529e+000	(-1.23181506770900e-007dB,-1.24130369079401e-002°)
1.39636836105593e+000	(-1.23750086789519e-007dB,-1.24416519129228e-002°)
1.39958732257261e+000	(-1.24321290743249e-007dB,-1.24703328823022e-002°)
1.40281370456195e+000	(-1.24895134061331e-007dB,-1.24990799681417e-002°)
1.40604752412990e+000	(-1.25471622529730e-007dB,-1.25278933228556e-002°)
1.40928879842186e+000	(-1.26050774470668e-007dB,-1.25567730992095e-002°)
1.41253754462274e+000	(-1.26632597598766e-007dB,-1.25857194503209e-002°)
1.41579377995707e+000	(-1.27217106378937e-007dB,-1.26147325296605e-002°)
1.41905752168908e+000	(-1.27804314311765e-007dB,-1.26438124910527e-002°)
1.42232878712281e+000	(-1.28394232969182e-007dB,-1.26729594886767e-002°)
1.42560759360218e+000	(-1.28986872958790e-007dB,-1.27021736770668e-002°)
1.42889395851109e+000	(-1.29582248745502e-007dB,-1.27314552111137e-002°)
1.43218789927353e+000	(-1.30180373829903e-007dB,-1.27608042460652e-002°)
1.43548943335364e+000	(-1.30781259783923e-007dB,-1.27902209375270e-002°)
1.43879857825583e+000	(-1.31384918179494e-007dB,-1.28197054414633e-002°)
1.44211535152486e+000	(-1.31991365410182e-007dB,-1.28492579141981e-002°)
1.44543977074592e+000	(-1.32600608226280e-007dB,-1.28788785124155e-002°)
1.44877185354475e+000	(-1.33212664950012e-007dB,-1.29085673931611e-002°)
1.45211161758773e+000	(-1.33827546188980e-007dB,-1.29383247138423e-002°)
1.45545908058195e+000	(-1.34445265443769e-007dB,-1.29681506322295e-002°)
1.45881426027534e+000	(-1.35065837179293e-007dB,-1.29980453064566e-002°)
1.46217717445671e+000	(-1.35689272967482e-007dB,-1.30280088950221e-002°)
1.46554784095590e+000	(-1.36315586308921e-007dB,-1.30580415567902e-002°)
1.46892627764385e+000	(-1.36944789739867e-007dB,-1.30881434509908e-002°)
1.47231250243271e+000	(-1.37576897725235e-007dB,-1.31183147372213e-002°)
1.47570653327588e+000	(-1.38211924729936e-007dB,-1.31485555754467e-002°)
1.47910838816819e+000	(-1.38849883290229e-007dB,-1.31788661260010e-002°)
1.48251808514594e+000	(-1.39490784978044e-007dB,-1.32092465495876e-002°)
1.48593564228699e+000	(-1.40134643293966e-007dB,-1.32396970072805e-002°)
1.48936107771090e+000	(-1.40781475595891e-007dB,-1.32702176605249e-002°)
1.49279440957898e+000	(-1.41431293455749e-007dB,-1.33008086711384e-002°)
1.49623565609442e+000	(-1.42084110374126e-007dB,-1.33314702013113e-002°)
1.49968483550236e+000	(-1.42739941780263e-007dB,-1.33622024136080e-002°)
1.50314196609001e+000	(-1.43398799246088e-007dB,-1.33930054709677e-002°)
1.50660706618673e+000	(-1.44060699165171e-007dB,-1.34238795367049e-002°)
1.51008015416413e+000	(-1.44725652145114e-007dB,-1.34548247745110e-002°)
1.51356124843619e+000	(-1.45393673615159e-007dB,-1.34858413484545e-002°)
1.51705036745932e+000	(-1.46064781897527e-007dB,-1.35169294229820e-002°)
1.52054752973248e+000	(-1.46738985671166e-007dB,-1.35480891629196e-002°)
1.52405275379728e+000	(-1.47416302293973e-007dB,-1.35793207334729e-002°)
1.52756605823806e+000	(-1.48096746230860e-007dB,-1.36106243002287e-002°)
1.53108746168202e+000	(-1.48780329053758e-007dB,-1.36420000291552e-002°)
1.53461698279928e+000	(-1.49467068120562e-007dB,-1.36734480866035e-002°)
1.53815464030302e+000	(-1.50156975967530e-007dB,-1.37049686393080e-002°)
1.54170045294954e+000	(-1.50850069952558e-007dB,-1.37365618543875e-002°)
1.54525443953840e+000	(-1.51546361647576e-007dB,-1.37682278993461e-002°)
1.54881661891247e+000	(-1.52245868410479e-007dB,-1.37999669420739e-002°)
1.55238700995807e+000	(-1.52948602777527e-007dB,-1.38317791508481e-002°)
1.55596563160506e+000	(-1.53654582106613e-007dB,-1.38636646943339e-002°)
1.55955250282694e+000	(-1.54363818933997e-007dB,-1.38956237415853e-002°)
1.56314764264094e+000	(-1.55076330617574e-007dB,-1.39276564620458e-002°)
1.56675107010813e+000	(-1.55792130657929e-007dB,-1.39597630255498e-002°)
1.57036280433354e+000	(-1.56511233519975e-007dB,-1.39919436023230e-002°)
1.57398286446620e+000	(-1.57233656561608e-007dB,-1.40241983629835e-002°)
1.57761126969933e+000	(-1.57959413283414e-007dB,-1.40565274785430e-002°)
1.58124803927037e+000	(-1.58688521043288e-007dB,-1.40889311204071e-002°)
1.58489319246110e+000	(-1.59420995270471e-007dB,-1.41214094603767e-002°)
1.58854674859776e+000	(-1.60156848501221e-007dB,-1.41539626706486e-002°)
1.59220872705115e+000	(-1.60896098093433e-007dB,-1.41865909238167e-002°)
1.59587914723672e+000	(-1.61638761405003e-007dB,-1.42192943928728e-002°)
1.59955802861465e+000	(-1.62384852900845e-007dB,-1.42520732512073e-002°)
1.60324539069002e+000	(-1.63134387045871e-007dB,-1.42849276726104e-002°)
1.60694125301286e+000	(-1.63887382162304e-007dB,-1.43178578312729e-002°)
1.61064563517825e+000	(-1.64643850786403e-007dB,-1.43508639017874e-002°)
1.61435855682647e+000	(-1.65403812204718e-007dB,-1.43839460591485e-002°)
1.61808003764305e+000	(-1.66167281846490e-007dB,-1.44171044787547e-002°)
1.62181009735891e+000	(-1.66934274176632e-007dB,-1.44503393364085e-002°)
1.62554875575047e+000	(-1.67704806553040e-007dB,-1.44836508083177e-002°)
1.62929603263970e+000	(-1.68478898262264e-007dB,-1.45170390710964e-002°)
1.63305194789432e+000	(-1.69256560876236e-007dB,-1.45505043017660e-002°)
1.63681652142779e+000	(-1.70037814645833e-007dB,-1.45840466777555e-002°)
1.64058977319952e+000	(-1.70822672107313e-007dB,-1.46176663769034e-002°)
1.64437172321491e+000	(-1.71611156404538e-007dB,-1.46513635774579e-002°)
1.64816239152549e+000	(-1.72403275252128e-007dB,-1.46851384580781e-002°)
1.65196179822900e+000	(-1.73199055651254e-007dB,-1.47189911978352e-002°)
1.65576996346951e+000	(-1.73998504352209e-007dB,-1.47529219762128e-002°)
1.65958690743754e+000	(-1.74801644498854e-007dB,-1.47869309731086e-002°)
1.66341265037015e+000	(-1.75608492484757e-007dB,-1.48210183688348e-002°)
1.66724721255104e+000	(-1.76419062774831e-007dB,-1.48551843441195e-002°)
1.67109061431069e+000	(-1.77233377548610e-007dB,-1.48894290801071e-002°)
1.67494287602642e+000	(-1.78051449342352e-007dB,-1.49237527583598e-002°)
1.67880401812254e+000	(-1.78873298406936e-007dB,-1.49581555608582e-002°)
1.68267406107045e+000	(-1.79698938242946e-007dB,-1.49926376700026e-002°)
1.68655302538872e+000	(-1.80528391994245e-007dB,-1.50271992686137e-002°)
1.69044093164324e+000	(-1.81361674125745e-007dB,-1.50618405399335e-002°)
1.69433780044731e+000	(-1.82198800066687e-007dB,-1.50965616676266e-002°)
1.69824365246172e+000	(-1.83039791996605e-007dB,-1.51313628357810e-002°)
1.70215850839493e+000	(-1.83884667273394e-007dB,-1.51662442289088e-002°)
1.70608238900310e+000	(-1.84733438433313e-007dB,-1.52012060319478e-002°)
1.71001531509027e+000	(-1.85586128620223e-007dB,-1.52362484302618e-002°)
1.71395730750840e+000	(-1.86442756156347e-007dB,-1.52713716096422e-002°)
1.71790838715757e+000	(-1.87303336470926e-007dB,-1.53065757563085e-002°)
1.72186857498599e+000	(-1.88167888850511e-007dB,-1.53418610569096e-002°)
1.72583789199018e+000	(-1.89036433545981e-007dB,-1.53772276985245e-002°)
1.72981635921508e+000	(-1.89908986950904e-007dB,-1.54126758686636e-002°)
1.73380399775412e+000	(-1.90785564494520e-007dB,-1.54482057552696e-002°)
1.73780082874935e+000	(-1.91666192213674e-007dB,-1.54838175467184e-002°)
1.74180687339159e+000	(-1.92550881680297e-007dB,-1.55195114318200e-002°)
1.74582215292048e+000	(-1.93439657966903e-007dB,-1.55552875998198e-002°)
1.74984668862464e+000	(-1.94332535538408e-007dB,-1.55911462403995e-002°)
1.75388050184174e+000	(-1.95229532717034e-007dB,-1.56270875436780e-002°)
1.75792361395867e+000	(-1.96130669753660e-007dB,-1.56631117002125e-002°)
1.76197604641161e+000	(-1.97035969792148e-007dB,-1.56992189009993e-002°)
1.76603782068614e+000	(-1.97945446333082e-007dB,-1.57354093374753e-002°)
1.77010895831740e+000	(-1.98859120591670e-007dB,-1.57716832015184e-002°)
1.77418948089014e+000	(-1.99777010890135e-007dB,-1.58080406854491e-002°)
1.77827941003890e+000	(-2.00699142300992e-007dB,-1.58444819820311e-002°)
1.78237876744807e+000	(-2.01625525431846e-007dB,-1.58810072844723e-002°)
1.78648757485203e+000	(-2.02556186319540e-007dB,-1.59176167864264e-002°)
1.79060585403527e+000	(-2.03491143286298e-007dB,-1.59543106819932e-002°)
1.79473362683250e+000	(-2.04430415618672e-007dB,-1.59910891657200e-002°)
1.79887091512876e+000	(-2.05374025496193e-007dB,-1.60279524326027e-002°)
1.80301774085955e+000	(-2.06321987383778e-007dB,-1.60649006780865e-002°)
1.80717412601090e+000	(-2.07274327318268e-007dB,-1.61019340980673e-002°)
1.81134009261958e+000	(-2.08231062657561e-007dB,-1.61390528888927e-002°)
1.81551566277311e+000	(-2.09192212688207e-007dB,-1.61762572473626e-002°)
1.81970085860996e+000	(-2.10157800554068e-007dB,-1.62135473707308e-002°)
1.82389570231961e+000	(-2.11127843613040e-007dB,-1.62509234567058e-002°)
1.82810021614272e+000	(-2.12102365008985e-007dB,-1.62883857034519e-002°)
1.83231442237119e+000	(-2.13081386921436e-007dB,-1.63259343095901e-002°)
1.83653834334832e+000	(-2.14064923815306e-007dB,-1.63635694741992e-002°)
1.84077200146893e+000	(-2.15053002691768e-007dB,-1.64012913968172e-002°)
1.84501541917945e+000	(-2.16045642837373e-007dB,-1.64391002774419e-002°)
1.84926861897805e+000	(-2.17042864502999e-007dB,-1.64769963165321e-002°)
1.85353162341479e+000	(-2.18044688903853e-007dB,-1.65149797150089e-002°)
1.85780445509167e+000	(-2.19051138219469e-007dB,-1.65530506742563e-002°)
1.86208713666284e+000	(-2.20062230772071e-007dB,-1.65912093961228e-002°)
1.86637969083464e+000	(-2.21077994527157e-007dB,-1.66294560829220e-002°)
1.87068214036577e+000	(-2.22098441056659e-007dB,-1.66677909374340e-002°)
